time	V(vin)	V(vout)
0.000000000000000e+000	-2.000000e+000	8.476923e+000
9.999999824516700e-015	-2.000000e+000	8.476922e+000
1.999999964903340e-014	-2.000000e+000	8.476922e+000
3.999999929806680e-014	-2.000000e+000	8.476922e+000
1.599999971922672e-013	-2.000000e+000	8.476922e+000
3.199999943845344e-013	-2.000000e+000	8.476922e+000
6.399999887690688e-013	-2.000000e+000	8.476922e+000
1.000000000000000e-012	-2.000000e+000	8.476922e+000
2.000000000000000e-012	2.000000e+000	8.477695e+000
9.120545805212880e-005	2.000000e+000	8.481340e+000
1.824109141042576e-004	2.000000e+000	8.481982e+000
2.736163701563864e-004	2.000000e+000	8.479620e+000
3.648218262085152e-004	2.000000e+000	8.474255e+000
4.560272822606440e-004	2.000000e+000	8.465887e+000
5.472327383127727e-004	2.000000e+000	8.454515e+000
6.384381943649013e-004	2.000000e+000	8.440140e+000
6.540631943649013e-004	2.000000e+000	8.434723e+000
6.696881943649013e-004	2.000000e+000	8.428213e+000
6.853131943649014e-004	2.000000e+000	8.420142e+000
7.009381943649014e-004	2.000000e+000	8.409781e+000
7.165631943649014e-004	2.000000e+000	8.396064e+000
7.321881943649014e-004	2.000000e+000	8.377785e+000
7.478131943649014e-004	2.000000e+000	8.354789e+000
7.581791095676507e-004	2.000000e+000	8.337109e+000
7.659105378780476e-004	2.000000e+000	8.322836e+000
7.726825908883410e-004	2.000000e+000	8.309887e+000
7.794398699881511e-004	2.000000e+000	8.296719e+000
7.884385366820954e-004	2.000000e+000	8.278983e+000
7.974089116998578e-004	2.000000e+000	8.261178e+000
8.113383138379201e-004	2.000000e+000	8.233411e+000
8.269633138379201e-004	2.000000e+000	8.202203e+000
8.516828407182173e-004	2.000000e+000	8.152774e+000
8.764023675985143e-004	2.000000e+000	8.103343e+000
9.011218944788115e-004	2.000000e+000	8.053910e+000
9.258414213591087e-004	2.000000e+000	8.004475e+000
9.505609482394058e-004	2.000000e+000	7.955039e+000
9.752804751197029e-004	2.000000e+000	7.905600e+000
1.000000002000000e-003	2.000000e+000	7.856160e+000
1.000000003000000e-003	-2.000000e+000	7.334355e+000
1.000002998919988e-003	-2.000000e+000	7.337140e+000
1.000005994839976e-003	-2.000000e+000	7.341956e+000
1.000008990759964e-003	-2.000000e+000	7.348802e+000
1.000011986679952e-003	-2.000000e+000	7.357679e+000
1.000014982599940e-003	-2.000000e+000	7.368587e+000
1.000017978519928e-003	-2.000000e+000	7.381525e+000
1.000020974439916e-003	-2.000000e+000	7.396494e+000
1.000031229996854e-003	-2.000000e+000	7.449730e+000
1.000057150431261e-003	-2.000000e+000	7.601054e+000
1.000072635007725e-003	-2.000000e+000	7.682563e+000
1.000087073369987e-003	-2.000000e+000	7.745167e+000
1.000103749134834e-003	-2.000000e+000	7.799501e+000
1.000119674747241e-003	-2.000000e+000	7.834669e+000
1.000138265431426e-003	-2.000000e+000	7.858374e+000
1.000159248208380e-003	-2.000000e+000	7.871305e+000
1.000171580071722e-003	-2.000000e+000	7.873795e+000
1.000180483948116e-003	-2.000000e+000	7.873543e+000
1.000189625789918e-003	-2.000000e+000	7.872360e+000
1.000200087473348e-003	-2.000000e+000	7.870442e+000
1.000224061478650e-003	-2.000000e+000	7.865420e+000
1.000237260726710e-003	-2.000000e+000	7.862890e+000
1.000251268745508e-003	-2.000000e+000	7.860643e+000
1.000266210663399e-003	-2.000000e+000	7.858807e+000
1.000282128134372e-003	-2.000000e+000	7.857456e+000
1.000299567122386e-003	-2.000000e+000	7.856576e+000
1.000320153729152e-003	-2.000000e+000	7.856078e+000
1.000335345109265e-003	-2.000000e+000	7.855977e+000
1.000351148717539e-003	-2.000000e+000	7.856038e+000
1.000370209948659e-003	-2.000000e+000	7.856197e+000
1.000413574604181e-003	-2.000000e+000	7.856589e+000
1.000439220195224e-003	-2.000000e+000	7.856754e+000
1.000470998382942e-003	-2.000000e+000	7.856884e+000
1.000516533630518e-003	-2.000000e+000	7.856997e+000
1.000716860400922e-003	-2.000000e+000	7.857374e+000
1.163597949750144e-003	-2.000000e+000	8.183105e+000
1.179222949750144e-003	-2.000000e+000	8.214328e+000
1.194847949750144e-003	-2.000000e+000	8.245489e+000
1.210472949750144e-003	-2.000000e+000	8.276453e+000
1.226097949750144e-003	-2.000000e+000	8.306920e+000
1.238051307231847e-003	-2.000000e+000	8.329430e+000
1.247834775849452e-003	-2.000000e+000	8.346744e+000
1.257441886942906e-003	-2.000000e+000	8.362191e+000
1.267843723941610e-003	-2.000000e+000	8.376580e+000
1.282989489950128e-003	-2.000000e+000	8.393578e+000
1.298614489950128e-003	-2.000000e+000	8.407181e+000
1.314239489950128e-003	-2.000000e+000	8.417511e+000
1.329864489950128e-003	-2.000000e+000	8.425531e+000
1.345489489950128e-003	-2.000000e+000	8.431911e+000
1.376739489950128e-003	-2.000000e+000	8.441522e+000
1.403525204235842e-003	-2.000000e+000	8.447141e+000
1.430310918521557e-003	-2.000000e+000	8.452109e+000
1.457096632807271e-003	-2.000000e+000	8.456425e+000
1.483882347092985e-003	-2.000000e+000	8.460090e+000
1.510668061378700e-003	-2.000000e+000	8.463103e+000
1.537453775664414e-003	-2.000000e+000	8.465465e+000
1.564239489950128e-003	-2.000000e+000	8.467175e+000
1.626490991528681e-003	-2.000000e+000	8.470493e+000
1.688742493107235e-003	-2.000000e+000	8.473163e+000
1.750993994685788e-003	-2.000000e+000	8.475184e+000
1.813245496264341e-003	-2.000000e+000	8.476558e+000
1.875496997842894e-003	-2.000000e+000	8.477284e+000
1.937748499421447e-003	-2.000000e+000	8.477362e+000
2.000000001000000e-003	-2.000000e+000	8.476792e+000
2.000000002000000e-003	2.000000e+000	8.477570e+000
2.048797052086609e-003	2.000000e+000	8.477882e+000
2.097594102173219e-003	2.000000e+000	8.476399e+000
2.146391152259828e-003	2.000000e+000	8.473121e+000
2.195188202346437e-003	2.000000e+000	8.468048e+000
2.243985252433046e-003	2.000000e+000	8.461181e+000
2.292782302519655e-003	2.000000e+000	8.452518e+000
2.341579352606264e-003	2.000000e+000	8.442060e+000
2.357204352606264e-003	2.000000e+000	8.436991e+000
2.372829352606264e-003	2.000000e+000	8.430958e+000
2.388454352606264e-003	2.000000e+000	8.423587e+000
2.404079352606264e-003	2.000000e+000	8.414254e+000
2.419704352606265e-003	2.000000e+000	8.402015e+000
2.435329352606265e-003	2.000000e+000	8.385666e+000
2.450954352606265e-003	2.000000e+000	8.364347e+000
2.466163966168407e-003	2.000000e+000	8.339468e+000
2.473242401673377e-003	2.000000e+000	8.326657e+000
2.480572547151472e-003	2.000000e+000	8.312718e+000
2.486928670275030e-003	2.000000e+000	8.300390e+000
2.493326570790053e-003	2.000000e+000	8.287825e+000
2.501653665615311e-003	2.000000e+000	8.271348e+000
2.509192168674351e-003	2.000000e+000	8.256358e+000
2.522220841781398e-003	2.000000e+000	8.230372e+000
2.534728255910282e-003	2.000000e+000	8.205388e+000
2.570442541624567e-003	2.000000e+000	8.133971e+000
2.606156827338853e-003	2.000000e+000	8.062552e+000
2.641871113053139e-003	2.000000e+000	7.991131e+000
2.677585398767425e-003	2.000000e+000	7.919708e+000
2.713299684481711e-003	2.000000e+000	7.848283e+000
2.749013970195996e-003	2.000000e+000	7.776856e+000
2.784728255910282e-003	2.000000e+000	7.705428e+000
3.000000002000000e-003	2.000000e+000	7.274895e+000
3.000000003000000e-003	-2.000000e+000	6.753090e+000
3.000002998919988e-003	-2.000000e+000	6.755875e+000
3.000005994839976e-003	-2.000000e+000	6.760691e+000
3.000008990759964e-003	-2.000000e+000	6.767538e+000
3.000011986679952e-003	-2.000000e+000	6.776415e+000
3.000014982599940e-003	-2.000000e+000	6.787323e+000
3.000017978519928e-003	-2.000000e+000	6.800261e+000
3.000020974439916e-003	-2.000000e+000	6.815230e+000
3.000031230005710e-003	-2.000000e+000	6.868468e+000
3.000057150440672e-003	-2.000000e+000	7.019793e+000
3.000072635010304e-003	-2.000000e+000	7.101303e+000
3.000087073350062e-003	-2.000000e+000	7.163908e+000
3.000103749067742e-003	-2.000000e+000	7.218241e+000
3.000119674614770e-003	-2.000000e+000	7.253409e+000
3.000138265184883e-003	-2.000000e+000	7.277114e+000
3.000159247761040e-003	-2.000000e+000	7.290045e+000
3.000171579669254e-003	-2.000000e+000	7.292535e+000
3.000180483591845e-003	-2.000000e+000	7.292284e+000
3.000189625483893e-003	-2.000000e+000	7.291101e+000
3.000200088595102e-003	-2.000000e+000	7.289183e+000
3.000224064494009e-003	-2.000000e+000	7.284160e+000
3.000237264468366e-003	-2.000000e+000	7.281630e+000
3.000251274085566e-003	-2.000000e+000	7.279383e+000
3.000266217328606e-003	-2.000000e+000	7.277547e+000
3.000282137355633e-003	-2.000000e+000	7.276196e+000
3.000299579852027e-003	-2.000000e+000	7.275316e+000
3.000320175222061e-003	-2.000000e+000	7.274818e+000
3.000335361123649e-003	-2.000000e+000	7.274717e+000
3.000351163250339e-003	-2.000000e+000	7.274778e+000
3.000370226531701e-003	-2.000000e+000	7.274938e+000
3.000413594200753e-003	-2.000000e+000	7.275330e+000
3.000439241951171e-003	-2.000000e+000	7.275495e+000
3.000471028141308e-003	-2.000000e+000	7.275625e+000
3.000516579916054e-003	-2.000000e+000	7.275737e+000
3.000716912374359e-003	-2.000000e+000	7.276114e+000
3.444844366599386e-003	-2.000000e+000	8.164310e+000
3.460469366599386e-003	-2.000000e+000	8.195545e+000
3.476094366599386e-003	-2.000000e+000	8.226751e+000
3.491719366599386e-003	-2.000000e+000	8.257859e+000
3.507344366599386e-003	-2.000000e+000	8.288658e+000
3.522969366599386e-003	-2.000000e+000	8.318743e+000
3.533699031043580e-003	-2.000000e+000	8.338402e+000
3.544139164220460e-003	-2.000000e+000	8.356026e+000
3.553914489985885e-003	-2.000000e+000	8.370594e+000
3.566157537857040e-003	-2.000000e+000	8.385785e+000
3.581782537857040e-003	-2.000000e+000	8.401136e+000
3.597407537857040e-003	-2.000000e+000	8.412901e+000
3.613032537857040e-003	-2.000000e+000	8.421908e+000
3.628657537857040e-003	-2.000000e+000	8.429010e+000
3.659907537857040e-003	-2.000000e+000	8.439509e+000
3.684461109285611e-003	-2.000000e+000	8.445109e+000
3.709014680714183e-003	-2.000000e+000	8.450075e+000
3.733568252142754e-003	-2.000000e+000	8.454408e+000
3.758121823571325e-003	-2.000000e+000	8.458108e+000
3.782675394999897e-003	-2.000000e+000	8.461174e+000
3.807228966428469e-003	-2.000000e+000	8.463607e+000
3.831782537857040e-003	-2.000000e+000	8.465406e+000
3.855813604020320e-003	-2.000000e+000	8.467186e+000
3.879844670183600e-003	-2.000000e+000	8.468797e+000
3.903875736346880e-003	-2.000000e+000	8.470238e+000
3.927906802510160e-003	-2.000000e+000	8.471511e+000
3.951937868673441e-003	-2.000000e+000	8.472615e+000
3.975968934836720e-003	-2.000000e+000	8.473549e+000
4.000000001000001e-003	-2.000000e+000	8.474315e+000
4.000000002000000e-003	1.999998e+000	8.475169e+000
4.028813578300038e-003	1.999999e+000	8.473106e+000
4.057627154600077e-003	2.000000e+000	8.470405e+000
4.086440730900115e-003	2.000000e+000	8.467066e+000
4.115254307200154e-003	2.000000e+000	8.463088e+000
4.144067883500192e-003	2.000000e+000	8.458472e+000
4.172881459800231e-003	2.000000e+000	8.453217e+000
4.201695036100269e-003	2.000000e+000	8.447324e+000
4.217320036100269e-003	2.000000e+000	8.443113e+000
4.232945036100269e-003	2.000000e+000	8.438227e+000
4.248570036100269e-003	2.000000e+000	8.432443e+000
4.264195036100269e-003	2.000000e+000	8.425421e+000
4.279820036100269e-003	2.000000e+000	8.416604e+000
4.295445036100269e-003	2.000000e+000	8.405130e+000
4.311070036100269e-003	2.000000e+000	8.389834e+000
4.326695036100269e-003	2.000000e+000	8.369656e+000
4.342320036100269e-003	2.000000e+000	8.345006e+000
4.350417829770093e-003	2.000000e+000	8.330626e+000
4.358534512056228e-003	2.000000e+000	8.315325e+000
4.364502903350136e-003	2.000000e+000	8.303800e+000
4.370923889852117e-003	2.000000e+000	8.291224e+000
4.377420458695386e-003	2.000000e+000	8.278399e+000
4.384069266053073e-003	2.000000e+000	8.265204e+000
4.392938863655708e-003	2.000000e+000	8.247542e+000
4.401192725882045e-003	2.000000e+000	8.231073e+000
4.428922090081305e-003	2.000000e+000	8.175656e+000
5.000000002000000e-003	2.000000e+000	7.033562e+000
5.000000003000001e-003	-2.000000e+000	6.511759e+000
5.000002998921288e-003	-2.000000e+000	6.514542e+000
5.000005994842576e-003	-2.000000e+000	6.519357e+000
5.000008990763863e-003	-2.000000e+000	6.526203e+000
5.000011986685150e-003	-2.000000e+000	6.535079e+000
5.000014982606437e-003	-2.000000e+000	6.545986e+000
5.000017978527725e-003	-2.000000e+000	6.558925e+000
5.000020974449012e-003	-2.000000e+000	6.573894e+000
5.000031229885137e-003	-2.000000e+000	6.627129e+000
5.000057150094263e-003	-2.000000e+000	6.778449e+000
5.000072634549236e-003	-2.000000e+000	6.859956e+000
5.000087072741151e-003	-2.000000e+000	6.922560e+000
5.000103748383730e-003	-2.000000e+000	6.976892e+000
5.000119673814643e-003	-2.000000e+000	7.012060e+000
5.000138264266073e-003	-2.000000e+000	7.035765e+000
5.000159246442486e-003	-2.000000e+000	7.048696e+000
5.000171578692298e-003	-2.000000e+000	7.051186e+000
5.000180482838354e-003	-2.000000e+000	7.050935e+000
5.000189624982030e-003	-2.000000e+000	7.049752e+000
5.000200088450377e-003	-2.000000e+000	7.047834e+000
5.000224065033777e-003	-2.000000e+000	7.042811e+000
5.000237265383613e-003	-2.000000e+000	7.040281e+000
5.000251275501597e-003	-2.000000e+000	7.038034e+000
5.000266219343922e-003	-2.000000e+000	7.036198e+000
5.000282140267960e-003	-2.000000e+000	7.034847e+000
5.000299584193418e-003	-2.000000e+000	7.033967e+000
5.000320182790405e-003	-2.000000e+000	7.033470e+000
5.000335366982348e-003	-2.000000e+000	7.033369e+000
5.000351168746650e-003	-2.000000e+000	7.033430e+000
5.000370232937158e-003	-2.000000e+000	7.033589e+000
5.000413602157337e-003	-2.000000e+000	7.033982e+000
5.000439251043665e-003	-2.000000e+000	7.034146e+000
5.000471040686179e-003	-2.000000e+000	7.034276e+000
5.000516599758016e-003	-2.000000e+000	7.034389e+000
5.000716937143206e-003	-2.000000e+000	7.034766e+000
5.569842818786241e-003	-2.000000e+000	8.172940e+000
5.585467818786241e-003	-2.000000e+000	8.204171e+000
5.601092818786241e-003	-2.000000e+000	8.235360e+000
5.616717818786241e-003	-2.000000e+000	8.266415e+000
5.632342818786241e-003	-2.000000e+000	8.297100e+000
5.645443112826073e-003	-2.000000e+000	8.322142e+000
5.655646909256982e-003	-2.000000e+000	8.340659e+000
5.665622115388884e-003	-2.000000e+000	8.357324e+000
5.675298924764870e-003	-2.000000e+000	8.371542e+000
5.688257411768834e-003	-2.000000e+000	8.387331e+000
5.703882411768834e-003	-2.000000e+000	8.402348e+000
5.719507411768834e-003	-2.000000e+000	8.413817e+000
5.735132411768834e-003	-2.000000e+000	8.422620e+000
5.750757411768834e-003	-2.000000e+000	8.429579e+000
5.782007411768834e-003	-2.000000e+000	8.439902e+000
5.806560983197405e-003	-2.000000e+000	8.445432e+000
5.831114554625977e-003	-2.000000e+000	8.450339e+000
5.855668126054548e-003	-2.000000e+000	8.454622e+000
5.880221697483120e-003	-2.000000e+000	8.458282e+000
5.904775268911691e-003	-2.000000e+000	8.461318e+000
5.929328840340263e-003	-2.000000e+000	8.463732e+000
5.953882411768834e-003	-2.000000e+000	8.465522e+000
6.000000001000001e-003	-2.000000e+000	8.468836e+000
6.000000002000000e-003	1.999998e+000	8.469888e+000
6.022030499619382e-003	1.999999e+000	8.467338e+000
6.044060997238763e-003	2.000000e+000	8.464307e+000
6.066091494858144e-003	2.000000e+000	8.460794e+000
6.088121992477526e-003	2.000001e+000	8.456801e+000
6.110152490096907e-003	2.000001e+000	8.452326e+000
6.132182987716288e-003	2.000000e+000	8.447370e+000
6.154213485335670e-003	2.000000e+000	8.441933e+000
6.169838485335670e-003	2.000000e+000	8.436841e+000
6.185463485335670e-003	2.000000e+000	8.430779e+000
6.201088485335670e-003	2.000000e+000	8.423363e+000
6.216713485335670e-003	2.000000e+000	8.413966e+000
6.232338485335670e-003	2.000000e+000	8.401631e+000
6.247963485335670e-003	2.000000e+000	8.385155e+000
6.263588485335670e-003	2.000000e+000	8.363698e+000
6.278785988434038e-003	2.000000e+000	8.338721e+000
6.286009066403631e-003	2.000000e+000	8.325612e+000
6.293133202525567e-003	2.000000e+000	8.312046e+000
6.299264490017824e-003	2.000000e+000	8.300145e+000
6.305772753859893e-003	2.000000e+000	8.287362e+000
6.313006722510325e-003	2.000000e+000	8.273051e+000
6.320291601426256e-003	2.000000e+000	8.258571e+000
6.331867440533948e-003	2.000000e+000	8.235492e+000
6.342700307951755e-003	2.000000e+000	8.213858e+000
6.389575307951755e-003	2.000000e+000	8.120136e+000
7.000000002000000e-003	2.000000e+000	6.899333e+000
7.000000003000001e-003	-2.000000e+000	6.377530e+000
7.000002998921288e-003	-2.000000e+000	6.380314e+000
7.000005994842576e-003	-2.000000e+000	6.385129e+000
7.000008990763863e-003	-2.000000e+000	6.391975e+000
7.000011986685150e-003	-2.000000e+000	6.400851e+000
7.000014982606437e-003	-2.000000e+000	6.411759e+000
7.000017978527725e-003	-2.000000e+000	6.424698e+000
7.000020974449012e-003	-2.000000e+000	6.439668e+000
7.000031229943833e-003	-2.000000e+000	6.492905e+000
7.000057150274510e-003	-2.000000e+000	6.644229e+000
7.000072634798974e-003	-2.000000e+000	6.725738e+000
7.000087073060790e-003	-2.000000e+000	6.788342e+000
7.000103748729220e-003	-2.000000e+000	6.842676e+000
7.000119674186785e-003	-2.000000e+000	6.877844e+000
7.000138264642325e-003	-2.000000e+000	6.901549e+000
7.000159246899783e-003	-2.000000e+000	6.914480e+000
7.000171579026421e-003	-2.000000e+000	6.916971e+000
7.000180483098755e-003	-2.000000e+000	6.916719e+000
7.000189625158744e-003	-2.000000e+000	6.915536e+000
7.000200089054096e-003	-2.000000e+000	6.913618e+000
7.000224066116973e-003	-2.000000e+000	6.908595e+000
7.000237266604589e-003	-2.000000e+000	6.906065e+000
7.000251277159208e-003	-2.000000e+000	6.903818e+000
7.000266221287611e-003	-2.000000e+000	6.901982e+000
7.000282142870263e-003	-2.000000e+000	6.900631e+000
7.000299587618854e-003	-2.000000e+000	6.899752e+000
7.000320188413306e-003	-2.000000e+000	6.899254e+000
7.000335371058790e-003	-2.000000e+000	6.899153e+000
7.000351172327528e-003	-2.000000e+000	6.899214e+000
7.000370236915527e-003	-2.000000e+000	6.899374e+000
7.000413606592136e-003	-2.000000e+000	6.899766e+000
7.000439255791466e-003	-2.000000e+000	6.899930e+000
7.000471047073250e-003	-2.000000e+000	6.900061e+000
7.000516609416341e-003	-2.000000e+000	6.900173e+000
7.000716946379146e-003	-2.000000e+000	6.900550e+000
7.632342081205922e-003	-2.000000e+000	8.163717e+000
7.647967081205922e-003	-2.000000e+000	8.194954e+000
7.663592081205922e-003	-2.000000e+000	8.226160e+000
7.679217081205922e-003	-2.000000e+000	8.257272e+000
7.694842081205922e-003	-2.000000e+000	8.288080e+000
7.710467081205922e-003	-2.000000e+000	8.318187e+000
7.721238780030332e-003	-2.000000e+000	8.337951e+000
7.731721917471163e-003	-2.000000e+000	8.355687e+000
7.741492527723848e-003	-2.000000e+000	8.370296e+000
7.753644632830689e-003	-2.000000e+000	8.385440e+000
7.769269632830689e-003	-2.000000e+000	8.400871e+000
7.784894632830689e-003	-2.000000e+000	8.412701e+000
7.800519632830689e-003	-2.000000e+000	8.421753e+000
7.816144632830690e-003	-2.000000e+000	8.428886e+000
7.847394632830690e-003	-2.000000e+000	8.439424e+000
7.869195399712019e-003	-2.000000e+000	8.444521e+000
7.890996166593349e-003	-2.000000e+000	8.449078e+000
7.912796933474679e-003	-2.000000e+000	8.453095e+000
7.934597700356011e-003	-2.000000e+000	8.456570e+000
7.956398467237341e-003	-2.000000e+000	8.459504e+000
7.978199234118671e-003	-2.000000e+000	8.461897e+000
8.000000001000001e-003	-2.000000e+000	8.463750e+000
8.000000002000001e-003	2.000000e+000	8.465024e+000
8.015210028857380e-003	2.000000e+000	8.462517e+000
8.030420055714757e-003	2.000000e+000	8.459811e+000
8.045630082572136e-003	2.000000e+000	8.456908e+000
8.060840109429516e-003	2.000000e+000	8.453806e+000
8.076050136286895e-003	2.000000e+000	8.450506e+000
8.091260163144272e-003	2.000000e+000	8.447007e+000
8.106470190001651e-003	2.000000e+000	8.443311e+000
8.122095190001651e-003	2.000000e+000	8.438457e+000
8.137720190001651e-003	2.000000e+000	8.432718e+000
8.153345190001651e-003	2.000000e+000	8.425760e+000
8.168970190001651e-003	2.000000e+000	8.417037e+000
8.184595190001651e-003	2.000000e+000	8.405703e+000
