time	V(vin)	V(vout)
0.000000000000000e+000	0.000000e+000	3.519381e-005
1.814772460678909e-008	1.026230e-004	3.348307e-005
3.629544921357818e-008	2.052459e-004	1.369264e-005
5.444317382036728e-008	3.078689e-004	-2.417750e-005
7.259089842715637e-008	4.104918e-004	-8.012733e-005
9.073862303394545e-008	5.131148e-004	-1.541569e-004
1.088863476407346e-007	6.157377e-004	-2.462661e-004
1.270340722475236e-007	7.183607e-004	-3.564550e-004
1.846440512112245e-007	1.044137e-003	-7.895681e-004
2.468073274588441e-007	1.395662e-003	-1.371128e-003
3.243057078304079e-007	1.833904e-003	-2.200353e-003
4.281070669746322e-007	2.420885e-003	-3.402618e-003
8.043516542942753e-007	4.548478e-003	-8.012326e-003
5.872263274549730e-006	3.326603e-002	-7.118909e-002
1.094017489480519e-005	6.187801e-002	-1.341361e-001
1.600808651506064e-005	9.038441e-002	-1.968533e-001
2.107599813531609e-005	1.187852e-001	-2.593407e-001
2.614390975557155e-005	1.470805e-001	-3.215983e-001
3.121182137582700e-005	1.752702e-001	-3.836261e-001
3.627973299608245e-005	2.033543e-001	-4.454242e-001
4.688241156751103e-005	2.618590e-001	-5.741668e-001
5.748509013893962e-005	3.185960e-001	-6.990282e-001
6.808776871036820e-005	3.735651e-001	-8.200083e-001
7.869044728179679e-005	4.267665e-001	-9.371070e-001
8.929312585322537e-005	4.782001e-001	-1.050325e+000
9.989580442465396e-005	5.278660e-001	-1.159661e+000
1.104984829960825e-004	5.757640e-001	-1.265116e+000
1.277975901389397e-004	6.488695e-001	-1.426096e+000
1.450966972817968e-004	7.127536e-001	-1.566800e+000
1.623958044246540e-004	7.674163e-001	-1.687228e+000
1.796949115675112e-004	8.128575e-001	-1.787380e+000
1.969940187103683e-004	8.490772e-001	-1.867256e+000
2.142931258532255e-004	8.760755e-001	-1.926856e+000
2.315922329960826e-004	8.938524e-001	-1.966181e+000
2.516815187103684e-004	8.986269e-001	-1.976941e+000
2.717708044246541e-004	8.900707e-001	-1.958365e+000
2.918600901389398e-004	8.681838e-001	-1.910451e+000
3.119493758532256e-004	8.329660e-001	-1.833201e+000
3.320386615675113e-004	7.844174e-001	-1.726613e+000
3.521279472817970e-004	7.225381e-001	-1.590688e+000
3.722172329960827e-004	6.473279e-001	-1.425426e+000
3.839359829960827e-004	5.988417e-001	-1.318860e+000
3.956547329960827e-004	5.478416e-001	-1.206754e+000
4.073734829960827e-004	4.943275e-001	-1.089108e+000
4.190922329960828e-004	4.382995e-001	-9.659222e-001
4.308109829960828e-004	3.797575e-001	-8.371972e-001
4.425297329960828e-004	3.187016e-001	-7.029325e-001
4.542484829960828e-004	2.551318e-001	-5.631282e-001
4.598288401389399e-004	2.246291e-001	-4.960419e-001
4.654091972817971e-004	1.939453e-001	-4.285546e-001
4.709895544246542e-004	1.630803e-001	-3.606664e-001
4.765699115675114e-004	1.320342e-001	-2.923773e-001
4.821502687103685e-004	1.008068e-001	-2.236872e-001
4.877306258532257e-004	6.939834e-002	-1.545962e-001
4.933109829960828e-004	3.780867e-002	-8.510420e-002
4.961011615675114e-004	2.202977e-002	-5.039234e-002
4.988913401389399e-004	6.256213e-003	-1.569163e-002
5.016815187103685e-004	-9.512000e-003	1.899793e-002
5.044716972817971e-004	-2.527487e-002	5.367632e-002
5.072618758532257e-004	-4.103240e-002	8.834357e-002
5.100520544246542e-004	-5.678458e-002	1.229997e-001
5.128422329960828e-004	-7.253142e-002	1.576446e-001
5.206547329960828e-004	-1.167132e-001	2.548531e-001
5.284672329960828e-004	-1.603548e-001	3.508779e-001
5.362797329960829e-004	-2.034562e-001	4.457188e-001
5.440922329960829e-004	-2.460175e-001	5.393761e-001
5.519047329960829e-004	-2.880386e-001	6.318495e-001
5.597172329960829e-004	-3.295196e-001	7.231392e-001
5.675297329960829e-004	-3.704604e-001	8.132451e-001
5.809225901389400e-004	-4.391124e-001	9.643530e-001
5.943154472817972e-004	-5.036029e-001	1.106316e+000
6.077083044246543e-004	-5.639319e-001	1.239135e+000
6.211011615675115e-004	-6.200994e-001	1.362809e+000
6.344940187103686e-004	-6.721055e-001	1.477338e+000
6.478868758532259e-004	-7.199501e-001	1.582722e+000
6.612797329960830e-004	-7.636331e-001	1.678961e+000
6.897395544246544e-004	-8.362875e-001	1.839139e+000
7.181993758532259e-004	-8.812916e-001	1.938482e+000
7.466591972817973e-004	-8.986454e-001	1.976992e+000
7.751190187103689e-004	-8.883489e-001	1.954668e+000
8.035788401389403e-004	-8.504020e-001	1.871510e+000
8.320386615675117e-004	-7.848049e-001	1.727518e+000
8.604984829960831e-004	-6.915575e-001	1.522693e+000
8.727752687103689e-004	-6.443089e-001	1.418861e+000
8.850520544246546e-004	-5.940293e-001	1.308352e+000
8.973288401389404e-004	-5.407188e-001	1.191166e+000
9.096056258532261e-004	-4.843772e-001	1.067302e+000
9.218824115675118e-004	-4.250047e-001	9.367604e-001
9.341591972817975e-004	-3.626013e-001	7.995413e-001
9.464359829960832e-004	-2.971668e-001	6.556447e-001
9.531324115675118e-004	-2.610131e-001	5.761334e-001
9.598288401389403e-004	-2.245602e-001	4.959606e-001
9.665252687103689e-004	-1.878081e-001	4.151264e-001
9.732216972817975e-004	-1.507570e-001	3.336306e-001
9.799181258532260e-004	-1.134067e-001	2.514734e-001
9.866145544246547e-004	-7.575723e-002	1.686547e-001
9.933109829960833e-004	-3.780867e-002	8.517458e-002
9.961011615675119e-004	-2.202977e-002	5.046272e-002
9.988913401389405e-004	-6.256213e-003	1.576202e-002
1.001681518710369e-003	9.512000e-003	-1.892753e-002
1.004471697281798e-003	2.527487e-002	-5.360593e-002
1.007261875853226e-003	4.103240e-002	-8.827318e-002
1.010052054424655e-003	5.678458e-002	-1.229293e-001
1.012842232996083e-003	7.253142e-002	-1.575742e-001
1.020654732996083e-003	1.167132e-001	-2.547827e-001
1.028467232996083e-003	1.603548e-001	-3.508075e-001
1.036279732996083e-003	2.034562e-001	-4.456485e-001
1.044092232996083e-003	2.460175e-001	-5.393057e-001
1.051904732996083e-003	2.880386e-001	-6.317791e-001
1.059717232996083e-003	3.295196e-001	-7.230688e-001
1.067529732996083e-003	3.704604e-001	-8.131747e-001
1.080922590138941e-003	4.391124e-001	-9.642827e-001
1.094315447281798e-003	5.036029e-001	-1.106246e+000
1.107708304424655e-003	5.639319e-001	-1.239064e+000
1.121101161567512e-003	6.200994e-001	-1.362738e+000
1.134494018710369e-003	6.721055e-001	-1.477267e+000
1.147886875853226e-003	7.199501e-001	-1.582652e+000
1.161279732996083e-003	7.636331e-001	-1.678891e+000
1.189739554424655e-003	8.362875e-001	-1.839068e+000
1.218199375853226e-003	8.812916e-001	-1.938412e+000
1.246659197281798e-003	8.986454e-001	-1.976921e+000
1.275119018710369e-003	8.883489e-001	-1.954597e+000
1.303578840138941e-003	8.504020e-001	-1.871439e+000
1.332038661567512e-003	7.848049e-001	-1.727448e+000
1.360498482996084e-003	6.915575e-001	-1.522622e+000
1.372775268710369e-003	6.443089e-001	-1.418791e+000
1.385052054424655e-003	5.940293e-001	-1.308282e+000
1.397328840138941e-003	5.407188e-001	-1.191096e+000
1.409605625853226e-003	4.843772e-001	-1.067232e+000
1.421882411567512e-003	4.250047e-001	-9.366899e-001
1.434159197281798e-003	3.626013e-001	-7.994708e-001
1.446435982996084e-003	2.971668e-001	-6.555742e-001
1.453132411567512e-003	2.610131e-001	-5.760629e-001
1.459828840138941e-003	2.245602e-001	-4.958902e-001
1.466525268710370e-003	1.878081e-001	-4.150560e-001
1.473221697281798e-003	1.507570e-001	-3.335602e-001
1.479918125853227e-003	1.134067e-001	-2.514030e-001
1.486614554424655e-003	7.575723e-002	-1.685844e-001
1.493310982996084e-003	3.780867e-002	-8.510420e-002
1.496101161567512e-003	2.202977e-002	-5.039234e-002
1.498891340138941e-003	6.256213e-003	-1.569163e-002
1.501681518710370e-003	-9.512000e-003	1.899793e-002
1.504471697281798e-003	-2.527487e-002	5.367632e-002
1.507261875853227e-003	-4.103240e-002	8.834357e-002
1.510052054424655e-003	-5.678458e-002	1.229997e-001
1.512842232996084e-003	-7.253142e-002	1.576446e-001
1.520654732996084e-003	-1.167132e-001	2.548531e-001
1.528467232996084e-003	-1.603548e-001	3.508779e-001
1.536279732996084e-003	-2.034562e-001	4.457188e-001
1.544092232996084e-003	-2.460175e-001	5.393761e-001
1.551904732996084e-003	-2.880386e-001	6.318495e-001
1.559717232996084e-003	-3.295196e-001	7.231392e-001
1.567529732996084e-003	-3.704604e-001	8.132451e-001
1.580922590138941e-003	-4.391124e-001	9.643530e-001
1.594315447281798e-003	-5.036029e-001	1.106316e+000
1.607708304424655e-003	-5.639319e-001	1.239135e+000
1.621101161567512e-003	-6.200994e-001	1.362809e+000
1.634494018710370e-003	-6.721055e-001	1.477338e+000
1.647886875853227e-003	-7.199501e-001	1.582722e+000
1.661279732996084e-003	-7.636331e-001	1.678961e+000
1.689739554424655e-003	-8.362875e-001	1.839139e+000
1.718199375853227e-003	-8.812916e-001	1.938482e+000
1.746659197281798e-003	-8.986454e-001	1.976992e+000
1.775119018710370e-003	-8.883489e-001	1.954668e+000
1.803578840138941e-003	-8.504020e-001	1.871510e+000
1.832038661567513e-003	-7.848049e-001	1.727518e+000
1.860498482996084e-003	-6.915575e-001	1.522693e+000
1.872775268710370e-003	-6.443089e-001	1.418861e+000
1.885052054424655e-003	-5.940293e-001	1.308352e+000
1.897328840138941e-003	-5.407188e-001	1.191166e+000
1.909605625853227e-003	-4.843772e-001	1.067302e+000
1.921882411567513e-003	-4.250047e-001	9.367604e-001
1.934159197281799e-003	-3.626013e-001	7.995413e-001
1.946435982996084e-003	-2.971668e-001	6.556447e-001
1.953132411567513e-003	-2.610131e-001	5.761334e-001
1.959828840138941e-003	-2.245602e-001	4.959606e-001
1.966525268710370e-003	-1.878081e-001	4.151264e-001
1.973221697281799e-003	-1.507570e-001	3.336306e-001
1.979918125853227e-003	-1.134067e-001	2.514734e-001
1.986614554424656e-003	-7.575723e-002	1.686547e-001
1.993310982996084e-003	-3.780867e-002	8.517458e-002
1.996101161567513e-003	-2.202977e-002	5.046272e-002
1.998891340138941e-003	-6.256213e-003	1.576202e-002
2.001681518710370e-003	9.512000e-003	-1.892753e-002
2.004471697281799e-003	2.527487e-002	-5.360593e-002
2.007261875853227e-003	4.103240e-002	-8.827318e-002
2.010052054424656e-003	5.678458e-002	-1.229293e-001
2.012842232996084e-003	7.253142e-002	-1.575742e-001
2.020654732996084e-003	1.167132e-001	-2.547827e-001
2.028467232996084e-003	1.603548e-001	-3.508075e-001
2.036279732996084e-003	2.034562e-001	-4.456485e-001
2.044092232996084e-003	2.460175e-001	-5.393057e-001
2.051904732996084e-003	2.880386e-001	-6.317791e-001
2.059717232996084e-003	3.295196e-001	-7.230688e-001
2.067529732996084e-003	3.704604e-001	-8.131747e-001
2.080922590138941e-003	4.391124e-001	-9.642827e-001
2.094315447281799e-003	5.036029e-001	-1.106246e+000
2.107708304424656e-003	5.639319e-001	-1.239064e+000
2.121101161567513e-003	6.200994e-001	-1.362738e+000
2.134494018710370e-003	6.721055e-001	-1.477267e+000
2.147886875853227e-003	7.199501e-001	-1.582652e+000
2.161279732996084e-003	7.636331e-001	-1.678891e+000
2.189739554424656e-003	8.362875e-001	-1.839068e+000
2.218199375853227e-003	8.812916e-001	-1.938412e+000
2.246659197281799e-003	8.986454e-001	-1.976921e+000
2.275119018710370e-003	8.883489e-001	-1.954597e+000
2.303578840138942e-003	8.504020e-001	-1.871439e+000
2.332038661567513e-003	7.848049e-001	-1.727448e+000
2.360498482996085e-003	6.915575e-001	-1.522622e+000
2.372775268710370e-003	6.443089e-001	-1.418791e+000
2.385052054424656e-003	5.940293e-001	-1.308282e+000
2.397328840138942e-003	5.407188e-001	-1.191096e+000
2.409605625853227e-003	4.843772e-001	-1.067232e+000
2.421882411567513e-003	4.250047e-001	-9.366899e-001
2.434159197281799e-003	3.626013e-001	-7.994708e-001
2.446435982996085e-003	2.971668e-001	-6.555742e-001
2.453132411567513e-003	2.610131e-001	-5.760629e-001
2.459828840138942e-003	2.245602e-001	-4.958902e-001
2.466525268710370e-003	1.878081e-001	-4.150560e-001
2.473221697281799e-003	1.507570e-001	-3.335602e-001
2.479918125853227e-003	1.134067e-001	-2.514030e-001
2.486614554424656e-003	7.575723e-002	-1.685844e-001
2.493310982996085e-003	3.780867e-002	-8.510420e-002
2.496101161567513e-003	2.202977e-002	-5.039234e-002
2.498891340138942e-003	6.256213e-003	-1.569163e-002
2.501681518710370e-003	-9.512000e-003	1.899793e-002
2.504471697281799e-003	-2.527487e-002	5.367632e-002
2.507261875853227e-003	-4.103240e-002	8.834357e-002
2.510052054424656e-003	-5.678458e-002	1.229997e-001
2.512842232996085e-003	-7.253142e-002	1.576446e-001
2.520654732996085e-003	-1.167132e-001	2.548531e-001
2.528467232996085e-003	-1.603548e-001	3.508779e-001
2.536279732996085e-003	-2.034562e-001	4.457188e-001
2.544092232996085e-003	-2.460175e-001	5.393761e-001
2.551904732996085e-003	-2.880386e-001	6.318495e-001
2.559717232996085e-003	-3.295196e-001	7.231392e-001
2.567529732996085e-003	-3.704604e-001	8.132451e-001
2.580922590138942e-003	-4.391124e-001	9.643530e-001
2.594315447281799e-003	-5.036029e-001	1.106316e+000
2.607708304424656e-003	-5.639319e-001	1.239135e+000
2.621101161567513e-003	-6.200994e-001	1.362809e+000
2.634494018710370e-003	-6.721055e-001	1.477338e+000
2.647886875853228e-003	-7.199501e-001	1.582722e+000
2.661279732996085e-003	-7.636331e-001	1.678961e+000
2.689739554424656e-003	-8.362875e-001	1.839139e+000
2.718199375853228e-003	-8.812916e-001	1.938482e+000
2.746659197281799e-003	-8.986454e-001	1.976992e+000
2.775119018710370e-003	-8.883489e-001	1.954668e+000
2.803578840138942e-003	-8.504020e-001	1.871510e+000
2.832038661567514e-003	-7.848049e-001	1.727518e+000
2.860498482996085e-003	-6.915575e-001	1.522693e+000
2.872775268710371e-003	-6.443089e-001	1.418861e+000
2.885052054424657e-003	-5.940293e-001	1.308352e+000
2.897328840138942e-003	-5.407188e-001	1.191166e+000
2.909605625853228e-003	-4.843772e-001	1.067302e+000
2.921882411567513e-003	-4.250047e-001	9.367604e-001
2.934159197281799e-003	-3.626013e-001	7.995413e-001
2.946435982996085e-003	-2.971668e-001	6.556447e-001
2.953132411567513e-003	-2.610131e-001	5.761334e-001
2.959828840138942e-003	-2.245602e-001	4.959606e-001
2.966525268710371e-003	-1.878081e-001	4.151264e-001
2.973221697281799e-003	-1.507570e-001	3.336306e-001
2.979918125853228e-003	-1.134067e-001	2.514734e-001
2.986614554424657e-003	-7.575723e-002	1.686547e-001
2.993310982996085e-003	-3.780867e-002	8.517458e-002
2.996101161567513e-003	-2.202977e-002	5.046272e-002
2.998891340138942e-003	-6.256213e-003	1.576202e-002
3.001681518710371e-003	9.512000e-003	-1.892753e-002
3.004471697281800e-003	2.527487e-002	-5.360593e-002
3.007261875853228e-003	4.103240e-002	-8.827318e-002
3.010052054424657e-003	5.678458e-002	-1.229293e-001
3.012842232996085e-003	7.253142e-002	-1.575742e-001
3.020654732996085e-003	1.167132e-001	-2.547827e-001
3.028467232996085e-003	1.603548e-001	-3.508075e-001
3.036279732996085e-003	2.034562e-001	-4.456485e-001
3.044092232996085e-003	2.460175e-001	-5.393057e-001
3.051904732996085e-003	2.880386e-001	-6.317791e-001
3.059717232996085e-003	3.295196e-001	-7.230688e-001
3.067529732996085e-003	3.704604e-001	-8.131747e-001
3.080922590138942e-003	4.391124e-001	-9.642827e-001
3.094315447281800e-003	5.036029e-001	-1.106246e+000
3.107708304424657e-003	5.639319e-001	-1.239064e+000
3.121101161567514e-003	6.200994e-001	-1.362738e+000
3.134494018710371e-003	6.721055e-001	-1.477267e+000
3.147886875853228e-003	7.199501e-001	-1.582652e+000
3.161279732996085e-003	7.636331e-001	-1.678891e+000
3.189739554424657e-003	8.362875e-001	-1.839068e+000
3.218199375853228e-003	8.812916e-001	-1.938412e+000
3.246659197281800e-003	8.986454e-001	-1.976921e+000
3.275119018710371e-003	8.883489e-001	-1.954597e+000
3.303578840138943e-003	8.504020e-001	-1.871439e+000
3.332038661567514e-003	7.848049e-001	-1.727448e+000
3.360498482996085e-003	6.915575e-001	-1.522622e+000
3.372775268710371e-003	6.443089e-001	-1.418791e+000
3.385052054424657e-003	5.940293e-001	-1.308282e+000
3.397328840138943e-003	5.407188e-001	-1.191096e+000
3.409605625853228e-003	4.843772e-001	-1.067232e+000
3.421882411567514e-003	4.250047e-001	-9.366899e-001
3.434159197281800e-003	3.626013e-001	-7.994708e-001
3.446435982996085e-003	2.971668e-001	-6.555742e-001
3.453132411567514e-003	2.610131e-001	-5.760629e-001
3.459828840138943e-003	2.245602e-001	-4.958902e-001
3.466525268710371e-003	1.878081e-001	-4.150560e-001
3.473221697281800e-003	1.507570e-001	-3.335602e-001
3.479918125853228e-003	1.134067e-001	-2.514030e-001
3.486614554424657e-003	7.575723e-002	-1.685844e-001
3.493310982996086e-003	3.780867e-002	-8.510420e-002
3.496101161567514e-003	2.202977e-002	-5.039234e-002
3.498891340138943e-003	6.256213e-003	-1.569163e-002
3.501681518710371e-003	-9.512000e-003	1.899793e-002
3.504471697281800e-003	-2.527487e-002	5.367632e-002
3.507261875853228e-003	-4.103240e-002	8.834357e-002
3.510052054424657e-003	-5.678458e-002	1.229997e-001
3.512842232996086e-003	-7.253142e-002	1.576446e-001
3.520654732996086e-003	-1.167132e-001	2.548531e-001
3.528467232996086e-003	-1.603548e-001	3.508779e-001
3.536279732996086e-003	-2.034562e-001	4.457188e-001
3.544092232996086e-003	-2.460175e-001	5.393761e-001
3.551904732996086e-003	-2.880386e-001	6.318495e-001
3.559717232996086e-003	-3.295196e-001	7.231392e-001
3.567529732996086e-003	-3.704604e-001	8.132451e-001
3.580922590138943e-003	-4.391124e-001	9.643530e-001
3.594315447281800e-003	-5.036029e-001	1.106316e+000
3.607708304424657e-003	-5.639319e-001	1.239135e+000
3.621101161567514e-003	-6.200994e-001	1.362809e+000
3.634494018710371e-003	-6.721055e-001	1.477338e+000
3.647886875853228e-003	-7.199501e-001	1.582722e+000
3.661279732996086e-003	-7.636331e-001	1.678961e+000
3.689739554424657e-003	-8.362875e-001	1.839139e+000
3.718199375853229e-003	-8.812916e-001	1.938482e+000
3.746659197281800e-003	-8.986454e-001	1.976992e+000
3.775119018710371e-003	-8.883489e-001	1.954668e+000
3.803578840138943e-003	-8.504020e-001	1.871510e+000
3.832038661567515e-003	-7.848049e-001	1.727518e+000
3.860498482996086e-003	-6.915575e-001	1.522693e+000
3.867194911567514e-003	-6.666048e-001	1.467860e+000
3.873891340138943e-003	-6.405928e-001	1.410695e+000
3.880587768710371e-003	-6.135215e-001	1.351197e+000
3.887284197281800e-003	-5.853910e-001	1.289365e+000
3.893980625853228e-003	-5.562012e-001	1.225201e+000
3.900677054424657e-003	-5.259522e-001	1.158704e+000
3.907373482996085e-003	-4.946438e-001	1.089874e+000
3.911279732996085e-003	-4.760467e-001	1.048987e+000
3.920208304424655e-003	-4.321136e-001	9.523914e-001
3.929136875853226e-003	-3.871836e-001	8.535972e-001
3.938065447281796e-003	-3.412567e-001	7.526041e-001
3.946994018710367e-003	-2.943329e-001	6.494121e-001
3.955922590138938e-003	-2.464122e-001	5.440213e-001
3.964851161567508e-003	-1.974946e-001	4.364315e-001
3.973779732996078e-003	-1.475801e-001	3.266428e-001
3.993310982996076e-003	-3.780867e-002	8.517458e-002
3.997217232996076e-003	-1.573346e-002	3.661142e-002
4.000000000000000e-003	-8.817457e-016	1.998837e-003
