time	V(vin)	V(vout)
0.000000000000000e+000	0.000000e+000	1.281320e-003
1.606615967002446e-008	1.009467e-004	1.287652e-003
3.213231934004893e-008	2.018933e-004	1.310467e-003
4.819847901007339e-008	3.028400e-004	1.349765e-003
6.426463868009785e-008	4.037866e-004	1.405545e-003
8.033079835012231e-008	5.047333e-004	1.477807e-003
9.639695802014678e-008	6.056799e-004	1.566552e-003
1.124631176901712e-007	7.066266e-004	1.671779e-003
3.172115108895064e-007	1.993097e-003	2.986054e-003
5.268354204805902e-006	3.316449e-002	3.415654e-002
1.021949689872230e-005	6.422948e-002	6.522115e-002
1.517063959263869e-005	9.518806e-002	9.617989e-002
2.012178228655509e-005	1.260403e-001	1.270328e-001
2.507292498047148e-005	1.567860e-001	1.577798e-001
3.002406767438788e-005	1.874254e-001	1.884209e-001
3.497521036830426e-005	2.179584e-001	2.189562e-001
4.557788893973285e-005	2.831050e-001	2.841077e-001
5.618056751116143e-005	3.463198e-001	3.473286e-001
6.678324608259002e-005	4.076030e-001	4.086190e-001
7.738592465401860e-005	4.669544e-001	4.679788e-001
8.798860322544719e-005	5.243740e-001	5.254080e-001
9.859128179687577e-005	5.798620e-001	5.809066e-001
1.091939603683043e-004	6.334182e-001	6.344746e-001
1.248189603683043e-004	7.074921e-001	7.085683e-001
1.404439603683044e-004	7.733984e-001	7.744957e-001
1.560689603683044e-004	8.311370e-001	8.322568e-001
1.716939603683044e-004	8.807080e-001	8.818518e-001
1.873189603683044e-004	9.221113e-001	9.232805e-001
2.029439603683044e-004	9.553470e-001	9.565430e-001
2.185689603683044e-004	9.804150e-001	9.816393e-001
2.381002103683044e-004	9.962543e-001	9.975152e-001
2.576314603683045e-004	9.976953e-001	9.989918e-001
2.771627103683045e-004	9.847380e-001	9.860692e-001
2.966939603683045e-004	9.573826e-001	9.587474e-001
3.162252103683045e-004	9.156289e-001	9.170264e-001
3.357564603683046e-004	8.594771e-001	8.609061e-001
3.552877103683045e-004	7.889270e-001	7.903867e-001
3.675644960825902e-004	7.383550e-001	7.398321e-001
3.798412817968760e-004	6.842582e-001	6.857513e-001
3.921180675111617e-004	6.266365e-001	6.281443e-001
4.043948532254474e-004	5.654901e-001	5.670110e-001
4.166716389397332e-004	5.008188e-001	5.023516e-001
4.289484246540189e-004	4.326227e-001	4.341659e-001
4.412252103683046e-004	3.609017e-001	3.624540e-001
4.484796746540189e-004	3.178097e-001	3.193665e-001
4.557341389397332e-004	2.742862e-001	2.758469e-001
4.629886032254475e-004	2.303312e-001	2.318953e-001
4.702430675111617e-004	1.859447e-001	1.875115e-001
4.774975317968760e-004	1.411267e-001	1.426957e-001
4.847519960825903e-004	9.587723e-002	9.744773e-002
4.920064603683046e-004	5.019622e-002	5.176771e-002
5.115377103683046e-004	-7.241918e-002	-7.084808e-002
5.193502103683046e-004	-1.215512e-001	-1.199815e-001
5.271627103683046e-004	-1.701021e-001	-1.685345e-001
5.349752103683046e-004	-2.180719e-001	-2.165071e-001
5.427877103683046e-004	-2.654607e-001	-2.638992e-001
5.506002103683046e-004	-3.122683e-001	-3.107110e-001
5.584127103683047e-004	-3.584948e-001	-3.569423e-001
5.662252103683047e-004	-4.041403e-001	-4.025932e-001
5.796180675111618e-004	-4.807353e-001	-4.791993e-001
5.930109246540190e-004	-5.527500e-001	-5.512266e-001
6.064037817968761e-004	-6.201843e-001	-6.186751e-001
6.197966389397333e-004	-6.830382e-001	-6.815446e-001
6.331894960825904e-004	-7.413116e-001	-7.398354e-001
6.465823532254476e-004	-7.950047e-001	-7.935472e-001
6.599752103683047e-004	-8.441173e-001	-8.426802e-001
6.873189603683048e-004	-9.238255e-001	-9.224363e-001
7.146627103683048e-004	-9.750427e-001	-9.737010e-001
7.420064603683048e-004	-9.977689e-001	-9.964744e-001
7.693502103683048e-004	-9.920041e-001	-9.907565e-001
7.966939603683049e-004	-9.577483e-001	-9.565473e-001
8.240377103683049e-004	-8.950014e-001	-8.938468e-001
8.513814603683049e-004	-8.037636e-001	-8.026550e-001
8.636582460825906e-004	-7.546715e-001	-7.535806e-001
8.759350317968763e-004	-7.019393e-001	-7.008648e-001
8.882118175111621e-004	-6.455669e-001	-6.445075e-001
9.004886032254479e-004	-5.855545e-001	-5.845086e-001
9.127653889397336e-004	-5.219019e-001	-5.208683e-001
9.250421746540193e-004	-4.546092e-001	-4.535866e-001
9.373189603683050e-004	-3.836763e-001	-3.826633e-001
9.445734246540193e-004	-3.409784e-001	-3.399702e-001
9.518278889397336e-004	-2.977994e-001	-2.967954e-001
9.590823532254479e-004	-2.541393e-001	-2.531390e-001
9.663368175111622e-004	-2.099981e-001	-2.090008e-001
9.735912817968764e-004	-1.653757e-001	-1.643809e-001
9.808457460825908e-004	-1.202723e-001	-1.192794e-001
9.881002103683050e-004	-7.468769e-002	-7.369610e-002
9.998189603683050e-004	-1.137334e-003	-1.465540e-004
1.004283246082591e-003	2.696006e-002	2.795095e-002
1.008747531796876e-003	5.498131e-002	5.597253e-002
1.013211817511162e-003	8.292641e-002	8.391819e-002
1.017676103225448e-003	1.107954e-001	1.117879e-001
1.022140388939734e-003	1.385882e-001	1.395818e-001
1.026604674654019e-003	1.663048e-001	1.672997e-001
1.031068960368305e-003	1.939453e-001	1.949416e-001
1.041113603225448e-003	2.560023e-001	2.570028e-001
1.051158246082591e-003	3.164569e-001	3.174626e-001
1.061202888939734e-003	3.753092e-001	3.763213e-001
1.071247531796877e-003	4.325593e-001	4.335787e-001
1.081292174654020e-003	4.882070e-001	4.892348e-001
1.091336817511162e-003	5.422525e-001	5.432897e-001
1.101381460368305e-003	5.946957e-001	5.957434e-001
1.116448424654019e-003	6.692762e-001	6.703418e-001
1.131515388939734e-003	7.365504e-001	7.376353e-001
1.146582353225448e-003	7.965183e-001	7.976240e-001
1.161649317511162e-003	8.491799e-001	8.503078e-001
1.176716281796877e-003	8.945352e-001	8.956869e-001
1.191783246082591e-003	9.325842e-001	9.337611e-001
1.206850210368305e-003	9.633269e-001	9.645305e-001
1.227497531796877e-003	9.892048e-001	9.904467e-001
1.248144853225448e-003	9.988584e-001	1.000138e+000
1.268792174654020e-003	9.922879e-001	9.936040e-001
1.289439496082591e-003	9.694931e-001	9.708450e-001
1.310086817511163e-003	9.304741e-001	9.318610e-001
1.330734138939734e-003	8.752309e-001	8.766518e-001
1.351381460368305e-003	8.037636e-001	8.052176e-001
1.364216281796877e-003	7.522376e-001	7.537101e-001
1.377051103225448e-003	6.967983e-001	6.982878e-001
1.389885924654020e-003	6.374456e-001	6.389507e-001
1.402720746082591e-003	5.741796e-001	5.756987e-001
1.415555567511163e-003	5.070003e-001	5.085320e-001
1.428390388939734e-003	4.359077e-001	4.374504e-001
1.441225210368305e-003	3.609017e-001	3.624540e-001
1.448479674654020e-003	3.178097e-001	3.193665e-001
1.455734138939734e-003	2.742862e-001	2.758469e-001
1.462988603225448e-003	2.303312e-001	2.318953e-001
1.470243067511163e-003	1.859447e-001	1.875115e-001
1.477497531796877e-003	1.411267e-001	1.426957e-001
1.484751996082591e-003	9.587723e-002	9.744773e-002
1.492006460368306e-003	5.019622e-002	5.176771e-002
1.511537710368306e-003	-7.241918e-002	-7.084808e-002
1.519350210368306e-003	-1.215512e-001	-1.199815e-001
1.527162710368306e-003	-1.701021e-001	-1.685345e-001
1.534975210368306e-003	-2.180719e-001	-2.165071e-001
1.542787710368306e-003	-2.654607e-001	-2.638992e-001
1.550600210368306e-003	-3.122683e-001	-3.107110e-001
1.558412710368306e-003	-3.584948e-001	-3.569423e-001
1.566225210368306e-003	-4.041403e-001	-4.025932e-001
1.579618067511163e-003	-4.807353e-001	-4.791993e-001
1.593010924654020e-003	-5.527500e-001	-5.512266e-001
1.606403781796877e-003	-6.201843e-001	-6.186751e-001
1.619796638939734e-003	-6.830382e-001	-6.815446e-001
1.633189496082591e-003	-7.413116e-001	-7.398354e-001
1.646582353225448e-003	-7.950047e-001	-7.935472e-001
1.659975210368306e-003	-8.441173e-001	-8.426802e-001
1.687318960368306e-003	-9.238255e-001	-9.224363e-001
1.714662710368306e-003	-9.750427e-001	-9.737010e-001
1.742006460368306e-003	-9.977689e-001	-9.964744e-001
1.769350210368306e-003	-9.920041e-001	-9.907565e-001
1.796693960368306e-003	-9.577483e-001	-9.565473e-001
1.824037710368306e-003	-8.950014e-001	-8.938468e-001
1.851381460368306e-003	-8.037636e-001	-8.026550e-001
1.863658246082592e-003	-7.546715e-001	-7.535806e-001
1.875935031796877e-003	-7.019393e-001	-7.008648e-001
1.888211817511163e-003	-6.455669e-001	-6.445075e-001
1.900488603225449e-003	-5.855545e-001	-5.845086e-001
1.912765388939735e-003	-5.219019e-001	-5.208683e-001
1.925042174654020e-003	-4.546092e-001	-4.535866e-001
1.937318960368306e-003	-3.836763e-001	-3.826633e-001
1.944573424654020e-003	-3.409784e-001	-3.399702e-001
1.951827888939735e-003	-2.977994e-001	-2.967954e-001
1.959082353225449e-003	-2.541393e-001	-2.531390e-001
1.966336817511163e-003	-2.099981e-001	-2.090008e-001
1.973591281796877e-003	-1.653757e-001	-1.643809e-001
1.980845746082591e-003	-1.202723e-001	-1.192794e-001
1.988100210368306e-003	-7.468769e-002	-7.369609e-002
1.999818960368306e-003	-1.137334e-003	-1.465543e-004
2.004283246082591e-003	2.696006e-002	2.795095e-002
2.008747531796877e-003	5.498131e-002	5.597253e-002
2.013211817511163e-003	8.292641e-002	8.391819e-002
2.017676103225449e-003	1.107954e-001	1.117879e-001
2.022140388939734e-003	1.385882e-001	1.395818e-001
2.026604674654020e-003	1.663048e-001	1.672997e-001
2.031068960368306e-003	1.939453e-001	1.949416e-001
2.041113603225449e-003	2.560023e-001	2.570028e-001
2.051158246082591e-003	3.164569e-001	3.174626e-001
2.061202888939734e-003	3.753092e-001	3.763213e-001
2.071247531796877e-003	4.325593e-001	4.335787e-001
2.081292174654020e-003	4.882070e-001	4.892348e-001
2.091336817511163e-003	5.422525e-001	5.432897e-001
2.101381460368306e-003	5.946957e-001	5.957434e-001
2.116448424654020e-003	6.692762e-001	6.703418e-001
2.131515388939734e-003	7.365504e-001	7.376353e-001
2.146582353225449e-003	7.965183e-001	7.976240e-001
2.161649317511163e-003	8.491799e-001	8.503078e-001
2.176716281796878e-003	8.945352e-001	8.956869e-001
2.191783246082592e-003	9.325842e-001	9.337611e-001
2.206850210368306e-003	9.633269e-001	9.645305e-001
2.227497531796878e-003	9.892048e-001	9.904467e-001
2.248144853225449e-003	9.988584e-001	1.000138e+000
2.268792174654020e-003	9.922879e-001	9.936040e-001
2.289439496082592e-003	9.694931e-001	9.708450e-001
2.310086817511163e-003	9.304741e-001	9.318610e-001
2.330734138939735e-003	8.752309e-001	8.766518e-001
2.351381460368306e-003	8.037636e-001	8.052176e-001
2.364216281796878e-003	7.522376e-001	7.537101e-001
2.377051103225449e-003	6.967983e-001	6.982878e-001
2.389885924654021e-003	6.374456e-001	6.389507e-001
2.402720746082592e-003	5.741796e-001	5.756987e-001
2.415555567511163e-003	5.070003e-001	5.085320e-001
2.428390388939735e-003	4.359077e-001	4.374504e-001
2.441225210368306e-003	3.609017e-001	3.624540e-001
2.448479674654021e-003	3.178097e-001	3.193665e-001
2.455734138939735e-003	2.742862e-001	2.758469e-001
2.462988603225449e-003	2.303312e-001	2.318953e-001
2.470243067511163e-003	1.859447e-001	1.875115e-001
2.477497531796878e-003	1.411267e-001	1.426957e-001
2.484751996082592e-003	9.587723e-002	9.744773e-002
2.492006460368306e-003	5.019622e-002	5.176771e-002
2.511537710368306e-003	-7.241918e-002	-7.084808e-002
2.519350210368306e-003	-1.215512e-001	-1.199815e-001
2.527162710368306e-003	-1.701021e-001	-1.685345e-001
2.534975210368306e-003	-2.180719e-001	-2.165071e-001
2.542787710368306e-003	-2.654607e-001	-2.638992e-001
2.550600210368306e-003	-3.122683e-001	-3.107110e-001
2.558412710368306e-003	-3.584948e-001	-3.569423e-001
2.566225210368306e-003	-4.041403e-001	-4.025932e-001
2.579618067511163e-003	-4.807353e-001	-4.791993e-001
2.593010924654021e-003	-5.527500e-001	-5.512266e-001
2.606403781796878e-003	-6.201843e-001	-6.186751e-001
2.619796638939735e-003	-6.830382e-001	-6.815446e-001
2.633189496082592e-003	-7.413116e-001	-7.398354e-001
2.646582353225449e-003	-7.950047e-001	-7.935472e-001
2.659975210368306e-003	-8.441173e-001	-8.426802e-001
2.687318960368306e-003	-9.238255e-001	-9.224363e-001
2.714662710368306e-003	-9.750427e-001	-9.737010e-001
2.742006460368306e-003	-9.977689e-001	-9.964744e-001
2.769350210368306e-003	-9.920041e-001	-9.907565e-001
2.796693960368306e-003	-9.577483e-001	-9.565473e-001
2.824037710368306e-003	-8.950014e-001	-8.938468e-001
2.851381460368307e-003	-8.037636e-001	-8.026550e-001
2.863658246082592e-003	-7.546715e-001	-7.535806e-001
2.875935031796878e-003	-7.019393e-001	-7.008648e-001
2.888211817511164e-003	-6.455669e-001	-6.445075e-001
2.900488603225449e-003	-5.855545e-001	-5.845086e-001
2.912765388939735e-003	-5.219019e-001	-5.208683e-001
2.925042174654021e-003	-4.546092e-001	-4.535866e-001
2.937318960368307e-003	-3.836763e-001	-3.826633e-001
2.944573424654021e-003	-3.409784e-001	-3.399702e-001
2.951827888939735e-003	-2.977994e-001	-2.967954e-001
2.959082353225449e-003	-2.541393e-001	-2.531390e-001
2.966336817511164e-003	-2.099981e-001	-2.090008e-001
2.973591281796878e-003	-1.653757e-001	-1.643809e-001
2.980845746082592e-003	-1.202723e-001	-1.192794e-001
2.988100210368307e-003	-7.468769e-002	-7.369609e-002
2.999818960368307e-003	-1.137334e-003	-1.465543e-004
3.004283246082592e-003	2.696006e-002	2.795095e-002
3.008747531796878e-003	5.498131e-002	5.597253e-002
3.013211817511164e-003	8.292641e-002	8.391819e-002
3.017676103225449e-003	1.107954e-001	1.117879e-001
3.022140388939735e-003	1.385882e-001	1.395818e-001
3.026604674654021e-003	1.663048e-001	1.672997e-001
3.031068960368307e-003	1.939453e-001	1.949416e-001
3.041113603225449e-003	2.560023e-001	2.570028e-001
3.051158246082592e-003	3.164569e-001	3.174626e-001
3.061202888939735e-003	3.753092e-001	3.763213e-001
3.071247531796878e-003	4.325593e-001	4.335787e-001
3.081292174654021e-003	4.882070e-001	4.892348e-001
3.091336817511164e-003	5.422525e-001	5.432897e-001
3.101381460368307e-003	5.946957e-001	5.957434e-001
3.116448424654021e-003	6.692762e-001	6.703418e-001
3.131515388939735e-003	7.365504e-001	7.376353e-001
3.146582353225450e-003	7.965183e-001	7.976240e-001
3.161649317511164e-003	8.491799e-001	8.503078e-001
3.176716281796878e-003	8.945352e-001	8.956869e-001
3.191783246082592e-003	9.325842e-001	9.337611e-001
3.206850210368307e-003	9.633269e-001	9.645305e-001
3.227497531796878e-003	9.892048e-001	9.904467e-001
3.248144853225450e-003	9.988584e-001	1.000138e+000
3.268792174654021e-003	9.922879e-001	9.936040e-001
3.289439496082592e-003	9.694931e-001	9.708450e-001
3.310086817511164e-003	9.304741e-001	9.318610e-001
3.330734138939736e-003	8.752309e-001	8.766518e-001
3.351381460368307e-003	8.037636e-001	8.052176e-001
3.364216281796879e-003	7.522376e-001	7.537101e-001
3.377051103225450e-003	6.967983e-001	6.982878e-001
3.389885924654021e-003	6.374456e-001	6.389507e-001
3.402720746082593e-003	5.741796e-001	5.756987e-001
3.415555567511164e-003	5.070003e-001	5.085320e-001
3.428390388939735e-003	4.359077e-001	4.374504e-001
3.441225210368307e-003	3.609017e-001	3.624540e-001
3.448479674654021e-003	3.178097e-001	3.193665e-001
3.455734138939735e-003	2.742862e-001	2.758469e-001
3.462988603225450e-003	2.303312e-001	2.318953e-001
3.470243067511164e-003	1.859447e-001	1.875115e-001
3.477497531796879e-003	1.411267e-001	1.426957e-001
3.484751996082593e-003	9.587723e-002	9.744773e-002
3.492006460368307e-003	5.019622e-002	5.176771e-002
3.511537710368307e-003	-7.241918e-002	-7.084808e-002
3.519350210368307e-003	-1.215512e-001	-1.199815e-001
3.527162710368307e-003	-1.701021e-001	-1.685345e-001
3.534975210368307e-003	-2.180719e-001	-2.165071e-001
3.542787710368307e-003	-2.654607e-001	-2.638992e-001
3.550600210368307e-003	-3.122683e-001	-3.107110e-001
3.558412710368307e-003	-3.584948e-001	-3.569423e-001
3.566225210368307e-003	-4.041403e-001	-4.025932e-001
3.579618067511164e-003	-4.807353e-001	-4.791993e-001
3.593010924654022e-003	-5.527500e-001	-5.512266e-001
3.606403781796879e-003	-6.201843e-001	-6.186751e-001
3.619796638939736e-003	-6.830382e-001	-6.815446e-001
3.633189496082593e-003	-7.413116e-001	-7.398354e-001
3.646582353225450e-003	-7.950047e-001	-7.935472e-001
3.659975210368307e-003	-8.441173e-001	-8.426802e-001
3.687318960368307e-003	-9.238255e-001	-9.224363e-001
3.714662710368307e-003	-9.750427e-001	-9.737010e-001
3.742006460368307e-003	-9.977689e-001	-9.964744e-001
3.769350210368307e-003	-9.920041e-001	-9.907565e-001
3.796693960368307e-003	-9.577483e-001	-9.565473e-001
3.824037710368307e-003	-8.950014e-001	-8.938468e-001
3.851381460368307e-003	-8.037636e-001	-8.026550e-001
3.859751996082593e-003	-7.711298e-001	-7.700333e-001
3.868122531796879e-003	-7.366175e-001	-7.355325e-001
3.876493067511165e-003	-7.002266e-001	-6.991526e-001
3.884863603225450e-003	-6.619572e-001	-6.608936e-001
3.893234138939736e-003	-6.218092e-001	-6.207554e-001
3.901604674654022e-003	-5.797827e-001	-5.787380e-001
3.909975210368307e-003	-5.358776e-001	-5.348415e-001
3.913881460368307e-003	-5.150005e-001	-5.139682e-001
3.922810031796877e-003	-4.657268e-001	-4.647025e-001
3.931738603225448e-003	-4.153934e-001	-4.143764e-001
3.940667174654018e-003	-3.640006e-001	-3.629898e-001
3.949595746082589e-003	-3.115481e-001	-3.105428e-001
3.958524317511159e-003	-2.580361e-001	-2.570354e-001
3.967452888939730e-003	-2.034645e-001	-2.024676e-001
3.976381460368300e-003	-1.478333e-001	-1.468393e-001
3.995912710368298e-003	-2.567451e-002	-2.468363e-002
3.999818960368298e-003	-1.137443e-003	-1.466937e-004
4.000000000000000e-003	-9.797175e-016	9.907590e-004
