time	V(vf1)	V(vf2)	V(vg1)	V(n002)
0.000000000000000e+000	7.999824e+000	3.999910e+000	0.000000e+000	3.138504e-005
4.440053095308780e-009	7.999834e+000	3.999910e+000	1.065613e-003	3.348348e-005
8.880106190617560e-009	7.999799e+000	3.999910e+000	2.131225e-003	2.652852e-005
1.332015928592634e-008	7.999718e+000	3.999910e+000	3.196838e-003	1.052014e-005
1.776021238123512e-008	7.999590e+000	3.999910e+000	4.262451e-003	-1.454164e-005
2.220026547654390e-008	7.999416e+000	3.999910e+000	5.328064e-003	-4.865683e-005
2.664031857185268e-008	7.999197e+000	3.999910e+000	6.393677e-003	-9.182542e-005
3.108037166716145e-008	7.998931e+000	3.999910e+000	7.459289e-003	-1.440474e-004
4.361140420751163e-008	7.997638e+000	3.999910e+000	1.046674e-002	-3.981724e-004
5.956444024345040e-008	7.994842e+000	3.999910e+000	1.429547e-002	-9.480455e-004
8.434763004954976e-008	7.987531e+000	3.999910e+000	2.024343e-002	-2.385235e-003
1.203203468607887e-007	7.968486e+000	3.999910e+000	2.887688e-002	-6.129079e-003
1.890707339336614e-007	7.899244e+000	3.999910e+000	4.537698e-002	-1.974104e-002
2.941414237755430e-007	7.700633e+000	3.999910e+000	7.059394e-002	-5.878483e-002
4.113803035337424e-007	7.287436e+000	3.999910e+000	9.873127e-002	-1.400125e-001
5.494306253360994e-007	6.469730e+000	3.999909e+000	1.318634e-001	-3.007599e-001
6.601865286104832e-007	5.515647e+000	3.999908e+000	1.584448e-001	-4.883160e-001
7.280317011771944e-007	4.769578e+000	3.999907e+000	1.747276e-001	-6.349797e-001
8.088220137664600e-007	3.774532e+000	3.999906e+000	1.941173e-001	-8.305862e-001
8.911116813237356e-007	2.732371e+000	3.999903e+000	2.138668e-001	-1.035452e+000
9.761227749157850e-007	1.651742e+000	3.999900e+000	2.342695e-001	-1.247877e+000
1.065541923698834e-006	5.148944e-001	3.999895e+000	2.557301e-001	-1.471345e+000
1.244380221264931e-006	-1.760983e+000	3.999877e+000	2.986512e-001	-1.918660e+000
1.602056816397126e-006	-5.612690e+000	3.999814e+000	3.844936e-001	-2.675432e+000
2.001439581294450e-006	-8.285196e+000	3.999711e+000	4.803455e-001	-3.199995e+000
2.064042271533298e-006	-8.430872e+000	3.999689e+000	4.953701e-001	-3.228434e+000
2.940479934877169e-006	-8.459000e+000	3.999150e+000	7.057152e-001	-3.225988e+000
3.779259633340450e-006	-8.467934e+000	3.998350e+000	9.070223e-001	-3.210356e+000
4.618904663723117e-006	-8.472207e+000	3.997267e+000	1.108537e+000	-3.179914e+000
5.715182743173701e-006	-8.474719e+000	3.995407e+000	1.371644e+000	-3.111139e+000
6.904491865037384e-006	-8.475901e+000	3.992803e+000	1.657078e+000	-2.986588e+000
8.577499177817667e-006	-8.476471e+000	3.988114e+000	2.058600e+000	-2.700052e+000
1.059630977085585e-005	-8.476648e+000	3.980961e+000	2.543114e+000	-2.148001e+000
1.294898291898427e-005	-8.476606e+000	3.970631e+000	3.107756e+000	-1.167716e+000
1.519567568382383e-005	-8.476462e+000	3.958596e+000	3.646962e+000	2.214332e-001
1.805299604797913e-005	-8.476193e+000	3.940774e+000	4.332719e+000	2.592037e+000
1.925075368559506e-005	-8.475589e+000	3.932479e+000	4.620181e+000	3.808490e+000
1.972526451800630e-005	-8.474104e+000	3.928961e+000	4.734064e+000	4.358006e+000
2.045942753965221e-005	-8.461836e+000	3.923283e+000	4.910263e+000	5.276156e+000
2.054613232434431e-005	-8.458673e+000	3.922597e+000	4.931072e+000	5.355324e+000
2.073811162264955e-005	-8.450065e+000	3.921067e+000	4.977147e+000	5.415133e+000
2.113906163407451e-005	-8.413739e+000	3.917817e+000	5.073375e+000	5.444321e+000
2.142999340456581e-005	-8.131322e+000	3.915425e+000	5.143198e+000	5.501816e+000
2.154431321208503e-005	-7.609904e+000	3.914477e+000	5.170635e+000	5.595776e+000
2.167163849728532e-005	-6.534557e+000	3.913413e+000	5.201193e+000	5.786838e+000
2.174222101787637e-005	-5.794185e+000	3.912821e+000	5.218133e+000	5.917943e+000
2.184635465587869e-005	-4.565978e+000	3.911943e+000	5.243125e+000	6.135044e+000
2.203399592407372e-005	-2.249879e+000	3.910355e+000	5.288159e+000	6.543914e+000
2.237913453175000e-005	2.025465e+000	3.907410e+000	5.370992e+000	7.297403e+000
2.277849171837928e-005	6.116711e+000	3.903987e+000	5.466838e+000	8.017990e+000
2.316704707579897e-005	8.331775e+000	3.900651e+000	5.560091e+000	8.408475e+000
2.322742892019905e-005	8.432775e+000	3.900132e+000	5.574583e+000	8.426396e+000
2.334819260899921e-005	8.439599e+000	3.899096e+000	5.603566e+000	8.427930e+000
2.358971998659952e-005	8.448393e+000	3.897023e+000	5.661533e+000	8.430107e+000
2.407277474180014e-005	8.458262e+000	3.892882e+000	5.777466e+000	8.432998e+000
2.489661521254676e-005	8.466953e+000	3.885830e+000	5.975188e+000	8.436290e+000
2.571270714396526e-005	8.471149e+000	3.878859e+000	6.171050e+000	8.438576e+000
2.678469852658166e-005	8.473659e+000	3.869725e+000	6.428328e+000	8.440822e+000
2.793187291014654e-005	8.474837e+000	3.859980e+000	6.703650e+000	8.442757e+000
2.954502809134820e-005	8.475415e+000	3.846331e+000	7.090807e+000	8.445027e+000
3.145742208767545e-005	8.475533e+000	3.830213e+000	7.549781e+000	8.447379e+000
3.232071204292821e-005	8.475136e+000	3.822963e+000	7.756971e+000	8.448280e+000
3.298761956735963e-005	8.473846e+000	3.817381e+000	7.917029e+000	8.448758e+000
3.384014669960467e-005	8.470135e+000	3.810261e+000	8.121635e+000	8.448970e+000
3.453013926616769e-005	8.464396e+000	3.804512e+000	8.287233e+000	8.448634e+000
3.531803987649822e-005	8.451815e+000	3.797962e+000	8.476330e+000	8.447164e+000
3.605551969364017e-005	8.432562e+000	3.791842e+000	8.653325e+000	8.444455e+000
3.614712536844964e-005	8.428120e+000	3.791083e+000	8.675310e+000	8.443757e+000
3.633033671806860e-005	8.413465e+000	3.789566e+000	8.719281e+000	8.441345e+000
3.645233766818471e-005	8.395603e+000	3.788556e+000	8.748561e+000	8.438317e+000
3.655541366190889e-005	8.307257e+000	3.787704e+000	8.773299e+000	8.422899e+000
3.663474886437506e-005	8.006339e+000	3.787047e+000	8.792339e+000	8.370151e+000
3.673150224356540e-005	7.259420e+000	3.786247e+000	8.815560e+000	8.239134e+000
3.680831215701998e-005	6.474737e+000	3.785612e+000	8.833995e+000	8.101474e+000
3.687624296441380e-005	5.693528e+000	3.785050e+000	8.850298e+000	7.964417e+000
3.728591378363318e-005	7.170244e-001	3.781651e+000	8.948619e+000	7.091373e+000
3.763977542427356e-005	-3.242700e+000	3.778683e+000	9.033546e+000	6.396800e+000
3.818094113891276e-005	-8.363934e+000	3.774106e+000	9.163425e+000	5.498637e+000
3.819201867130301e-005	-8.413167e+000	3.774011e+000	9.166084e+000	5.490011e+000
3.949663495905598e-005	-8.447628e+000	3.762428e+000	9.479192e+000	5.485355e+000
4.080125124680895e-005	-8.471369e+000	3.750176e+000	9.792300e+000	5.482497e+000
4.210586753456191e-005	-8.484390e+000	3.737255e+000	1.010541e+001	5.481437e+000
4.341048382231488e-005	-8.486692e+000	3.723665e+000	1.041852e+001	5.482175e+000
4.471510011006785e-005	-8.478274e+000	3.709406e+000	1.073162e+001	5.484710e+000
4.601971639782082e-005	-8.459136e+000	3.694479e+000	1.104473e+001	5.489043e+000
4.732433268557378e-005	-8.429278e+000	3.678882e+000	1.135784e+001	5.495174e+000
5.000000000000000e-005	-8.200097e+000	3.645296e+000	1.200000e+001	5.537394e+000
5.026756673144262e-005	-7.135259e+000	3.641731e+000	1.193578e+001	5.724448e+000
5.080270019432787e-005	-5.213618e+000	3.634538e+000	1.180735e+001	6.062027e+000
5.187296712009836e-005	-2.044318e+000	3.619947e+000	1.155049e+001	6.618859e+000
5.298552097662741e-005	4.405601e-001	3.604539e+000	1.128347e+001	7.055575e+000
5.444814684492068e-005	2.693922e+000	3.583988e+000	1.093244e+001	7.451846e+000
5.611861972190785e-005	4.282042e+000	3.560244e+000	1.053153e+001	7.731472e+000
5.935358126128001e-005	5.917404e+000	3.513893e+000	9.755140e+000	8.020184e+000
6.198729728621193e-005	6.575598e+000	3.476007e+000	9.123049e+000	8.137012e+000
6.308528489253893e-005	6.697797e+000	3.460186e+000	8.859531e+000	8.158971e+000
6.531077999976982e-005	6.839962e+000	3.428119e+000	8.325413e+000	8.184873e+000
6.603142676812424e-005	6.933092e+000	3.417743e+000	8.152457e+000	8.201499e+000
6.716749419626704e-005	7.478167e+000	3.401397e+000	7.879801e+000	8.297570e+000
6.804092037532510e-005	8.426151e+000	3.388842e+000	7.670179e+000	8.464225e+000
6.806539918216217e-005	8.443755e+000	3.388490e+000	7.664304e+000	8.467322e+000
6.811435679583630e-005	8.445541e+000	3.387788e+000	7.652555e+000	8.467651e+000
6.821227202318457e-005	8.448666e+000	3.386383e+000	7.629055e+000	8.468232e+000
6.838344671353320e-005	8.453228e+000	3.383928e+000	7.587973e+000	8.469089e+000
6.855997460514243e-005	8.456789e+000	3.381398e+000	7.545606e+000	8.469770e+000
6.891303038836089e-005	8.461569e+000	3.376345e+000	7.460873e+000	8.470722e+000
6.961914195479780e-005	8.467358e+000	3.366257e+000	7.291406e+000	8.471961e+000
7.052816499980116e-005	8.471425e+000	3.353304e+000	7.073240e+000	8.472951e+000
7.157895246472121e-005	8.473720e+000	3.338385e+000	6.821052e+000	8.473656e+000
7.280757976550760e-005	8.474892e+000	3.321017e+000	6.526181e+000	8.474191e+000
7.436071337278100e-005	8.475471e+000	3.299182e+000	6.153429e+000	8.474666e+000
7.640056154480710e-005	8.475758e+000	3.270719e+000	5.663865e+000	8.475135e+000
7.927425246063500e-005	8.475918e+000	3.231059e+000	4.974179e+000	8.475608e+000
8.366691719655142e-005	8.476068e+000	3.171560e+000	3.919940e+000	8.476008e+000
9.167081546221088e-005	8.476319e+000	3.066082e+000	1.999004e+000	8.476263e+000
1.000000000000000e-004	8.476579e+000	2.959096e+000	0.000000e+000	8.476312e+000
1.008329184537789e-004	8.476583e+000	2.948806e+000	1.999004e-001	8.476318e+000
1.024987553613368e-004	8.476566e+000	2.928376e+000	5.997013e-001	8.476323e+000
1.058304291764524e-004	8.476484e+000	2.888262e+000	1.399303e+000	8.476316e+000
1.124937768066837e-004	8.476276e+000	2.810740e+000	2.998507e+000	8.476290e+000
1.222594018066837e-004	8.475936e+000	2.702817e+000	5.342257e+000	8.476242e+000
1.320250268066837e-004	8.475537e+000	2.600097e+000	7.686007e+000	8.476183e+000
1.321224110360412e-004	8.475524e+000	2.599113e+000	7.709379e+000	8.476181e+000
1.323171794947560e-004	8.475434e+000	2.597189e+000	7.756123e+000	8.476166e+000
1.327067164121858e-004	8.474930e+000	2.593350e+000	7.849612e+000	8.476078e+000
1.334030989641857e-004	8.472929e+000	2.586518e+000	8.016744e+000	8.475727e+000
1.341284250971828e-004	8.468988e+000	2.579443e+000	8.190822e+000	8.475037e+000
1.348500106371629e-004	8.461750e+000	2.572451e+000	8.364002e+000	8.473767e+000
1.356602974210341e-004	8.444204e+000	2.564653e+000	8.558472e+000	8.470690e+000
1.364336318584445e-004	8.411202e+000	2.557251e+000	8.744072e+000	8.464900e+000
1.365502011758530e-004	8.387108e+000	2.556141e+000	8.772048e+000	8.460672e+000
1.367027557012582e-004	8.133262e+000	2.554691e+000	8.808661e+000	8.416131e+000
1.367895814600744e-004	7.634939e+000	2.553866e+000	8.829499e+000	8.328692e+000
1.368823979252674e-004	6.762580e+000	2.552985e+000	8.851775e+000	8.175624e+000
1.369355274738912e-004	6.177454e+000	2.552481e+000	8.864527e+000	8.072955e+000
1.370149951560072e-004	5.230246e+000	2.551728e+000	8.883599e+000	7.906754e+000
1.374565595918371e-004	-1.491780e-001	2.547534e+000	8.989574e+000	6.962884e+000
1.378226500641748e-004	-4.126704e+000	2.544033e+000	9.077436e+000	6.265014e+000
1.383243776666757e-004	-8.381406e+000	2.539203e+000	9.197850e+000	5.518542e+000
1.383345349899566e-004	-8.419764e+000	2.539105e+000	9.200289e+000	5.511813e+000
1.391576268947833e-004	-8.442538e+000	2.530968e+000	9.397831e+000	5.507913e+000
1.399807187996099e-004	-8.460361e+000	2.522602e+000	9.595372e+000	5.504864e+000
1.408038107044366e-004	-8.473232e+000	2.514008e+000	9.792914e+000	5.502665e+000
1.416269026092633e-004	-8.481153e+000	2.505186e+000	9.990457e+000	5.501316e+000
1.424499945140900e-004	-8.484123e+000	2.496135e+000	1.018800e+001	5.500818e+000
1.432730864189166e-004	-8.482142e+000	2.486856e+000	1.038554e+001	5.501171e+000
1.440961783237433e-004	-8.475210e+000	2.477349e+000	1.058308e+001	5.502374e+000
1.460008472467949e-004	-8.052526e+000	2.454603e+000	1.104020e+001	5.576545e+000
1.474190763284639e-004	-6.731361e+000	2.437080e+000	1.138058e+001	5.808357e+000
1.477416917874060e-004	-6.032792e+000	2.432987e+000	1.145801e+001	5.930925e+000
1.483869227052900e-004	-4.221378e+000	2.424683e+000	1.161286e+001	6.248744e+000
1.487095381642321e-004	-3.422718e+000	2.420499e+000	1.169029e+001	6.388868e+000
1.493547690821162e-004	-2.064196e+000	2.412060e+000	1.184514e+001	6.627211e+000
1.500000000000002e-004	-8.562501e-001	2.403577e+000	1.200000e+001	6.839131e+000
1.501935692753654e-004	-5.564981e-001	2.401013e+000	1.195354e+001	6.891717e+000
1.504516616425190e-004	-1.858203e-001	2.397587e+000	1.189160e+001	6.956746e+000
1.509678463768262e-004	4.640934e-001	2.390709e+000	1.176772e+001	7.070761e+000
1.520002158454406e-004	1.476169e+000	2.376874e+000	1.151995e+001	7.248307e+000
1.540649547826694e-004	2.797742e+000	2.349020e+000	1.102441e+001	7.480144e+000
1.572270988523682e-004	3.852402e+000	2.306138e+000	1.026550e+001	7.665155e+000
1.609257888147126e-004	4.327055e+000	2.255853e+000	9.377810e+000	7.748421e+000
1.643684118277322e-004	4.437462e+000	2.209040e+000	8.551581e+000	7.767791e+000
1.669504852640698e-004	4.461938e+000	2.173974e+000	7.931883e+000	7.772089e+000
1.676729576215591e-004	4.493413e+000	2.164174e+000	7.758490e+000	7.777613e+000
1.684358434593043e-004	4.561777e+000	2.153832e+000	7.575397e+000	7.789609e+000
1.685950747677661e-004	4.615011e+000	2.151675e+000	7.537182e+000	7.798949e+000
1.689135373846896e-004	4.992886e+000	2.147361e+000	7.460751e+000	7.865253e+000
1.690722797131470e-004	5.757234e+000	2.145211e+000	7.422653e+000	7.999370e+000
1.692452687638730e-004	7.329048e+000	2.142870e+000	7.381135e+000	8.275167e+000
1.693448325377408e-004	8.098175e+000	2.141524e+000	7.357240e+000	8.410118e+000
1.694590272952651e-004	8.399696e+000	2.139981e+000	7.329834e+000	8.463018e+000
1.695968026963121e-004	8.426302e+000	2.138121e+000	7.296767e+000	8.467679e+000
1.697217991521004e-004	8.436022e+000	2.136436e+000	7.266768e+000	8.469378e+000
1.699717920636771e-004	8.446712e+000	2.133071e+000	7.206770e+000	8.471243e+000
1.703237408861155e-004	8.455382e+000	2.128349e+000	7.122302e+000	8.472752e+000
1.710027373452805e-004	8.464206e+000	2.119277e+000	6.959343e+000	8.474282e+000
1.717759837307224e-004	8.469477e+000	2.109007e+000	6.773764e+000	8.475194e+000
1.727499949005640e-004	8.472702e+000	2.096166e+000	6.540001e+000	8.475751e+000
1.738122947944910e-004	8.474327e+000	2.082288e+000	6.285049e+000	8.476032e+000
1.752154952554775e-004	8.475205e+000	2.064163e+000	5.948281e+000	8.476185e+000
1.769071872357997e-004	8.475632e+000	2.042631e+000	5.542275e+000	8.476260e+000
1.793130826046747e-004	8.475855e+000	2.012628e+000	4.964860e+000	8.476302e+000
1.826224347391303e-004	8.475996e+000	1.972641e+000	4.170616e+000	8.476331e+000
2.000000000000002e-004	8.476543e+000	1.782254e+000	3.552714e-015	8.476448e+000
2.017737392161096e-004	8.476544e+000	1.765118e+000	4.256974e-001	8.476451e+000
2.041387248375887e-004	8.476496e+000	1.743023e+000	9.932939e-001	8.476444e+000
2.088686960805471e-004	8.476357e+000	1.701579e+000	2.128487e+000	8.476425e+000
2.183286385664638e-004	8.476054e+000	1.626949e+000	4.398873e+000	8.476380e+000
2.293149666914638e-004	8.475698e+000	1.550555e+000	7.035592e+000	8.476326e+000
2.317563729414638e-004	8.475220e+000	1.536500e+000	7.621530e+000	8.476244e+000
2.329805129777900e-004	8.473613e+000	1.529682e+000	7.915323e+000	8.475963e+000
2.339461251833985e-004	8.469905e+000	1.524481e+000	8.147070e+000	8.475312e+000
2.346351448268470e-004	8.464382e+000	1.520855e+000	8.312435e+000	8.474344e+000
2.353544829999717e-004	8.453420e+000	1.517147e+000	8.485076e+000	8.472421e+000
2.360710918926840e-004	8.432977e+000	1.513514e+000	8.657063e+000	8.468835e+000
2.364189965864990e-004	8.414256e+000	1.511773e+000	8.740560e+000	8.465549e+000
2.365059727599528e-004	8.399806e+000	1.511341e+000	8.761434e+000	8.463015e+000
2.366799251068603e-004	8.178049e+000	1.510483e+000	8.803182e+000	8.424104e+000
2.367692606318905e-004	7.724885e+000	1.510043e+000	8.824622e+000	8.344589e+000
2.368682574905049e-004	6.837873e+000	1.509557e+000	8.848382e+000	8.188950e+000
2.369214825357269e-004	6.259333e+000	1.509297e+000	8.861156e+000	8.087436e+000
2.370079791997262e-004	5.231263e+000	1.508873e+000	8.881915e+000	7.907047e+000
2.374733802113692e-004	-4.447007e-001	1.506596e+000	8.993611e+000	6.911147e+000
2.378618858972430e-004	-4.633045e+000	1.504676e+000	9.086853e+000	6.176291e+000
2.383269628128894e-004	-8.387798e+000	1.502355e+000	9.198471e+000	5.517538e+000
2.383366488671950e-004	-8.421296e+000	1.502306e+000	9.200796e+000	5.511662e+000
2.393957875360404e-004	-8.444797e+000	1.496751e+000	9.454989e+000	5.507644e+000
2.404549262048858e-004	-8.463051e+000	1.490877e+000	9.709182e+000	5.504525e+000
2.415140648737312e-004	-8.476057e+000	1.484683e+000	9.963376e+000	5.502306e+000
2.425732035425767e-004	-8.483815e+000	1.478170e+000	1.021757e+001	5.500986e+000
2.436323422114221e-004	-8.486326e+000	1.471338e+000	1.047176e+001	5.500565e+000
2.446914808802675e-004	-8.483589e+000	1.464187e+000	1.072596e+001	5.501043e+000
2.457506195491129e-004	-8.475605e+000	1.456716e+000	1.098015e+001	5.502421e+000
2.500000000000004e-004	-8.475772e+000	1.423976e+000	1.200000e+001	5.502397e+000
2.517810323563738e-004	-8.478289e+000	1.408212e+000	1.157255e+001	5.501957e+000
2.535620647127473e-004	-8.478670e+000	1.391706e+000	1.114510e+001	5.501892e+000
2.553430970691207e-004	-8.476912e+000	1.374459e+000	1.071766e+001	5.502202e+000
2.571241294254941e-004	-8.473018e+000	1.356469e+000	1.029021e+001	5.502887e+000
2.589051617818676e-004	-8.466986e+000	1.337738e+000	9.862761e+000	5.503948e+000
2.606861941382410e-004	-8.458816e+000	1.318265e+000	9.435314e+000	5.505383e+000
2.624672264946144e-004	-8.448509e+000	1.298050e+000	9.007866e+000	5.507194e+000
2.632429210083697e-004	-8.228541e+000	1.289038e+000	8.821699e+000	5.545791e+000
2.634368446368086e-004	-7.912926e+000	1.286703e+000	8.775157e+000	5.601170e+000
2.638246918936863e-004	-6.896416e+000	1.282001e+000	8.682074e+000	5.779526e+000
2.646003864074417e-004	-5.126126e+000	1.272498e+000	8.495907e+000	6.090128e+000
2.659263274298288e-004	-2.795746e+000	1.256047e+000	8.177681e+000	6.498978e+000
2.673440102698789e-004	-9.505557e-001	1.238270e+000	7.837438e+000	6.822689e+000
2.679575736224582e-004	-3.550715e-001	1.230518e+000	7.690182e+000	6.927154e+000
2.683789650908294e-004	-3.154868e-002	1.225170e+000	7.589048e+000	6.983908e+000
2.689783851343608e-004	3.703654e-001	1.217545e+000	7.445188e+000	7.054414e+000
2.693481951220532e-004	5.915036e-001	1.212833e+000	7.356433e+000	7.093207e+000
2.698565507839064e-004	8.643932e-001	1.206346e+000	7.234428e+000	7.141079e+000
2.707592171990865e-004	1.310609e+000	1.194809e+000	7.017788e+000	7.219358e+000
2.711540470076573e-004	1.528705e+000	1.189756e+000	6.923029e+000	7.257620e+000
2.714408797356239e-004	1.911070e+000	1.186085e+000	6.854189e+000	7.324708e+000
2.716549957688658e-004	2.878159e+000	1.183343e+000	6.802801e+000	7.494395e+000
2.718091933629941e-004	4.323439e+000	1.181369e+000	6.765794e+000	7.747987e+000
2.719496855482351e-004	6.007983e+000	1.179572e+000	6.732076e+000	8.043560e+000
2.720938653874795e-004	7.511300e+000	1.177730e+000	6.697472e+000	8.307329e+000
2.722264996243456e-004	8.339624e+000	1.176037e+000	6.665640e+000	8.452659e+000
2.722595979728127e-004	8.406616e+000	1.175615e+000	6.657697e+000	8.464411e+000
2.723257946697468e-004	8.417292e+000	1.174771e+000	6.641809e+000	8.466277e+000
2.724581880636149e-004	8.430042e+000	1.173088e+000	6.610035e+000	8.468502e+000
2.727229748513513e-004	8.443609e+000	1.169731e+000	6.546486e+000	8.470860e+000
2.732525484268241e-004	8.456969e+000	1.163051e+000	6.419388e+000	8.473170e+000
2.739716198157588e-004	8.465703e+000	1.154049e+000	6.246811e+000	8.474670e+000
2.747859261381364e-004	8.470407e+000	1.143953e+000	6.051378e+000	8.475473e+000
2.757437472520201e-004	8.473115e+000	1.132217e+000	5.821501e+000	8.475935e+000
2.768830125546627e-004	8.474603e+000	1.118458e+000	5.548077e+000	8.476188e+000
2.783213985040435e-004	8.475373e+000	1.101400e+000	5.202864e+000	8.476320e+000
2.801567157972681e-004	8.475752e+000	1.080154e+000	4.762388e+000	8.476386e+000
