time	V(vf2)	V(vg1)	V(vn002)	V(vref)	V(n002)
0.000000000000000e+000	9.999840e-001	0.000000e+000	-9.999926e-002	1.000000e+000	-8.101593e-007
8.796507161748536e-009	9.999840e-001	1.407441e-003	-9.999886e-002	1.000000e+000	2.299961e-006
1.759301432349707e-008	9.999840e-001	2.814882e-003	-9.999979e-002	1.000000e+000	-4.832520e-006
2.638952148524561e-008	9.999840e-001	4.222323e-003	-1.000021e-001	1.000000e+000	-2.220760e-005
3.518602864699414e-008	9.999840e-001	5.629765e-003	-1.000057e-001	1.000000e+000	-4.982528e-005
4.398253580874268e-008	9.999840e-001	7.037206e-003	-1.000106e-001	1.000000e+000	-8.768556e-005
5.277904297049122e-008	9.999840e-001	8.444647e-003	-1.000169e-001	1.000000e+000	-1.357884e-004
6.157555013223973e-008	9.999840e-001	9.852088e-003	-1.000245e-001	1.000000e+000	-1.941339e-004
8.448658386591541e-008	9.999840e-001	1.351785e-002	-1.000554e-001	1.000000e+000	-4.311311e-004
1.186202180069835e-007	9.999840e-001	1.897923e-002	-1.001288e-001	1.000000e+000	-9.941340e-004
1.715311973535850e-007	9.999840e-001	2.744499e-002	-1.003182e-001	1.000000e+000	-2.446026e-003
2.698503736308952e-007	9.999840e-001	4.317606e-002	-1.009602e-001	1.000000e+000	-7.367478e-003
4.664887261855153e-007	9.999837e-001	7.463820e-002	-1.032508e-001	1.000000e+000	-2.493120e-002
6.955986425063818e-007	9.999826e-001	1.112958e-001	-1.077947e-001	1.000000e+000	-5.978921e-002
9.447364793833353e-007	9.999796e-001	1.511578e-001	-1.156446e-001	1.000000e+000	-1.200567e-001
1.188122431345354e-006	9.999729e-001	1.900996e-001	-1.270612e-001	1.000000e+000	-2.078314e-001
1.474198120162899e-006	9.999582e-001	2.358717e-001	-1.451773e-001	1.000000e+000	-3.473698e-001
1.677635095255869e-006	9.999404e-001	2.684216e-001	-1.594593e-001	1.000000e+000	-4.577715e-001
1.891839359369182e-006	9.999142e-001	3.026943e-001	-1.724882e-001	1.000000e+000	-5.591187e-001
1.920461274802335e-006	9.999099e-001	3.072738e-001	-1.732370e-001	1.000000e+000	-5.651207e-001
2.321168090866483e-006	9.998165e-001	3.713869e-001	-1.724081e-001	1.000000e+000	-5.661551e-001
2.779118737796938e-006	9.996489e-001	4.446590e-001	-1.695816e-001	1.000000e+000	-5.641059e-001
3.590934206518156e-006	9.992305e-001	5.745495e-001	-1.598032e-001	1.000000e+000	-5.553282e-001
4.378655625156192e-006	9.986644e-001	7.005849e-001	-1.417471e-001	1.000000e+000	-5.383741e-001
5.432469540678643e-006	9.976560e-001	8.691951e-001	-1.001924e-001	1.000000e+000	-4.989437e-001
6.425983034675104e-006	9.964565e-001	1.028157e+000	-3.874840e-002	1.000000e+000	-4.404908e-001
7.427948980616923e-006	9.949718e-001	1.188472e+000	5.360326e-002	1.000000e+000	-3.525652e-001
8.583965215301066e-006	9.928970e-001	1.373434e+000	2.100298e-001	1.000000e+000	-2.036024e-001
1.023386875862722e-005	9.893075e-001	1.637419e+000	5.391443e-001	1.000000e+000	1.098320e-001
1.227371841434895e-005	9.838710e-001	1.963795e+000	1.153000e+000	1.000000e+000	6.944627e-001
1.495886334920013e-005	9.754620e-001	2.393418e+000	2.256009e+000	1.000000e+000	1.745016e+000
1.577080458645359e-005	9.725908e-001	2.523329e+000	2.677505e+000	1.000000e+000	2.146566e+000
1.647702632164797e-005	9.698789e-001	2.636324e+000	3.106571e+000	1.000000e+000	2.555507e+000
1.696793766370652e-005	9.679149e-001	2.714870e+000	3.430288e+000	1.000000e+000	2.864283e+000
1.744423995533628e-005	9.659472e-001	2.791078e+000	3.765362e+000	1.000000e+000	3.184575e+000
1.779999538646105e-005	9.644393e-001	2.847999e+000	4.035643e+000	1.000000e+000	3.486337e+000
1.818101745334838e-005	9.627903e-001	2.908963e+000	4.354817e+000	1.000000e+000	3.940609e+000
1.861825975409438e-005	9.608744e-001	2.978922e+000	4.747469e+000	1.000000e+000	4.565995e+000
1.888135765276985e-005	9.597172e-001	3.021017e+000	4.993382e+000	1.000000e+000	4.957403e+000
1.921891695592412e-005	9.582388e-001	3.075027e+000	5.311783e+000	1.000000e+000	5.405736e+000
1.960937532079394e-005	9.565476e-001	3.137500e+000	5.676081e+000	1.000000e+000	5.806792e+000
2.004189997265000e-005	9.547055e-001	3.206704e+000	6.088852e+000	1.000000e+000	6.201364e+000
2.145772064910788e-005	9.488958e-001	3.433235e+000	7.501940e+000	1.000000e+000	7.547989e+000
2.239478482279845e-005	9.452336e-001	3.583166e+000	8.149828e+000	1.000000e+000	8.165193e+000
2.346378274678074e-005	9.412398e-001	3.754205e+000	8.390734e+000	1.000000e+000	8.394716e+000
2.482466753271555e-005	9.364414e-001	3.971947e+000	8.410125e+000	1.000000e+000	8.413231e+000
2.650236366802086e-005	9.309454e-001	4.240378e+000	8.416962e+000	1.000000e+000	8.419764e+000
2.838815741747767e-005	9.253730e-001	4.542105e+000	8.420536e+000	1.000000e+000	8.423174e+000
3.115302934695591e-005	9.184108e-001	4.984485e+000	8.423527e+000	1.000000e+000	8.426023e+000
3.528411742106292e-005	9.107002e-001	5.645459e+000	8.426320e+000	1.000000e+000	8.428679e+000
4.209197834505132e-005	9.028105e-001	6.734716e+000	8.429102e+000	1.000000e+000	8.431321e+000
4.531816632005493e-005	9.012667e-001	7.250906e+000	8.429719e+000	1.000000e+000	8.431906e+000
4.744094925182778e-005	9.014335e-001	7.590552e+000	8.429795e+000	1.000000e+000	8.431967e+000
4.862942745836675e-005	9.019186e-001	7.780708e+000	8.429745e+000	1.000000e+000	8.431873e+000
5.004933151361204e-005	9.027836e-001	7.992107e+000	8.429613e+000	1.000000e+000	8.431621e+000
5.034532059528429e-005	9.030216e-001	7.944749e+000	8.429571e+000	1.000000e+000	8.431543e+000
5.052680265205821e-005	9.031748e-001	7.915711e+000	8.429543e+000	1.000000e+000	8.431505e+000
5.084359344783548e-005	9.034595e-001	7.865025e+000	8.429489e+000	1.000000e+000	8.431453e+000
5.146544782281747e-005	9.040701e-001	7.765528e+000	8.429370e+000	1.000000e+000	8.431369e+000
5.345795375617748e-005	9.064323e-001	7.446727e+000	8.428874e+000	1.000000e+000	8.431028e+000
5.438166135458594e-005	9.077384e-001	7.298934e+000	8.428583e+000	1.000000e+000	8.430785e+000
6.062977627667584e-005	9.208673e-001	6.299236e+000	8.425144e+000	1.000000e+000	8.427551e+000
6.529270063769364e-005	9.352542e-001	5.553168e+000	8.420141e+000	1.000000e+000	8.422791e+000
7.280821330524899e-005	9.657397e-001	4.350686e+000	8.392180e+000	1.000000e+000	8.396170e+000
8.135447107443449e-005	1.007658e+000	2.983285e+000	8.313472e+000	1.000000e+000	8.321218e+000
8.162472036001611e-005	1.009168e+000	2.940045e+000	8.289896e+000	1.000000e+000	8.298765e+000
8.216521893117935e-005	1.012412e+000	2.853565e+000	8.168038e+000	1.000000e+000	8.182711e+000
8.324621607350584e-005	1.019069e+000	2.680605e+000	7.752958e+000	1.000000e+000	7.787397e+000
8.540821035815882e-005	1.033071e+000	2.334686e+000	6.304320e+000	1.000000e+000	6.407744e+000
8.974369455347937e-005	1.062441e+000	1.641009e+000	2.232080e+000	1.000000e+000	2.529424e+000
8.997836947319778e-005	1.064134e+000	1.603461e+000	1.914391e+000	1.000000e+000	2.227002e+000
9.021304439291619e-005	1.065836e+000	1.565913e+000	1.588204e+000	1.000000e+000	1.916322e+000
9.044771931263460e-005	1.067547e+000	1.528365e+000	1.253520e+000	1.000000e+000	1.597384e+000
9.068239423235300e-005	1.069266e+000	1.490817e+000	9.103390e-001	1.000000e+000	1.270187e+000
9.091706915207141e-005	1.070993e+000	1.453269e+000	5.586607e-001	1.000000e+000	9.347309e-001
9.115174407178983e-005	1.072729e+000	1.415721e+000	1.984851e-001	1.000000e+000	5.910166e-001
9.138641899150823e-005	1.074473e+000	1.378173e+000	-1.701877e-001	1.000000e+000	2.390439e-001
9.152038765303686e-005	1.075472e+000	1.356738e+000	-3.865807e-001	1.000000e+000	1.993397e-002
9.168217753459721e-005	1.076683e+000	1.330852e+000	-6.592323e-001	1.000000e+000	-2.972924e-001
9.200575729771790e-005	1.079111e+000	1.279079e+000	-1.226715e+000	1.000000e+000	-1.022652e+000
9.229929968951891e-005	1.081312e+000	1.232112e+000	-1.758561e+000	1.000000e+000	-1.710986e+000
9.279663417837917e-005	1.085020e+000	1.152539e+000	-2.681768e+000	1.000000e+000	-2.845323e+000
9.319969204751863e-005	1.088003e+000	1.088049e+000	-3.435231e+000	1.000000e+000	-3.669437e+000
9.326316301744320e-005	1.088468e+000	1.077894e+000	-3.554748e+000	1.000000e+000	-3.787241e+000
9.364398883699069e-005	1.091224e+000	1.016962e+000	-4.289883e+000	1.000000e+000	-4.488053e+000
9.415175659638735e-005	1.094830e+000	9.357190e-001	-5.308926e+000	1.000000e+000	-5.459016e+000
9.497895484135558e-005	1.100568e+000	8.033672e-001	-6.918614e+000	1.000000e+000	-6.992438e+000
9.582299092713471e-005	1.106289e+000	6.683214e-001	-8.286585e+000	1.000000e+000	-8.295482e+000
9.595969850573410e-005	1.107196e+000	6.464483e-001	-8.386492e+000	1.000000e+000	-8.390652e+000
9.623311366293288e-005	1.108977e+000	6.027018e-001	-8.399938e+000	1.000000e+000	-8.403487e+000
9.677994397733044e-005	1.112466e+000	5.152090e-001	-8.413246e+000	1.000000e+000	-8.416203e+000
9.787360460612557e-005	1.119241e+000	3.402233e-001	-8.425654e+000	1.000000e+000	-8.428077e+000
9.867435920654417e-005	1.123997e+000	2.121025e-001	-8.430184e+000	1.000000e+000	-8.432412e+000
1.000000000000000e-004	1.131582e+000	0.000000e+000	-8.434425e+000	1.000000e+000	-8.436469e+000
1.011930767141103e-004	1.137849e+000	1.908923e-001	-8.436107e+000	1.000000e+000	-8.438075e+000
1.023861534282205e-004	1.143663e+000	3.817845e-001	-8.437596e+000	1.000000e+000	-8.439496e+000
1.035792301423308e-004	1.149023e+000	5.726768e-001	-8.438892e+000	1.000000e+000	-8.440733e+000
1.047723068564410e-004	1.153930e+000	7.635691e-001	-8.439995e+000	1.000000e+000	-8.441785e+000
1.059653835705513e-004	1.158384e+000	9.544614e-001	-8.440905e+000	1.000000e+000	-8.442653e+000
1.071584602846615e-004	1.162385e+000	1.145354e+000	-8.441623e+000	1.000000e+000	-8.443336e+000
1.083515369987718e-004	1.165933e+000	1.336246e+000	-8.442148e+000	1.000000e+000	-8.443834e+000
1.153155946996682e-004	1.179150e+000	2.450495e+000	-8.444702e+000	1.000000e+000	-8.446267e+000
1.250812196996682e-004	1.177342e+000	4.012995e+000	-8.445059e+000	1.000000e+000	-8.446607e+000
1.348468446996682e-004	1.154507e+000	5.575495e+000	-8.442079e+000	1.000000e+000	-8.443769e+000
1.402343750000002e-004	1.129397e+000	6.437500e+000	-8.437515e+000	1.000000e+000	-8.439423e+000
1.500000000000002e-004	1.067688e+000	8.000000e+000	-8.424193e+000	1.000000e+000	-8.426735e+000
1.509765625000002e-004	1.059580e+000	7.843750e+000	-8.421395e+000	1.000000e+000	-8.424070e+000
1.529296875000002e-004	1.042622e+000	7.531250e+000	-8.413237e+000	1.000000e+000	-8.416300e+000
1.568359375000002e-004	1.006344e+000	6.906250e+000	-8.283315e+000	1.000000e+000	-8.292564e+000
1.596712057176474e-004	9.780778e-001	6.452607e+000	-7.695729e+000	1.000000e+000	-7.732957e+000
1.615738451243905e-004	9.578229e-001	6.148185e+000	-6.504570e+000	1.000000e+000	-6.598516e+000
1.634805332177222e-004	9.364464e-001	5.843115e+000	-4.316434e+000	1.000000e+000	-4.514568e+000
1.657257278575244e-004	9.104100e-001	5.483883e+000	-9.155695e-001	1.000000e+000	-1.275635e+000
1.657528767056066e-004	9.100879e-001	5.479540e+000	-8.673205e-001	1.000000e+000	-1.229683e+000
1.659157697941001e-004	9.081275e-001	5.453477e+000	-5.502707e-001	1.000000e+000	-9.277291e-001
1.661329605787581e-004	9.055008e-001	5.418726e+000	-1.143397e-001	1.000000e+000	-5.125548e-001
1.665673421480740e-004	9.002030e-001	5.349225e+000	8.032752e-001	1.000000e+000	3.613686e-001
1.674361052867059e-004	8.895122e-001	5.210223e+000	2.737240e+000	1.000000e+000	2.203249e+000
1.676299258321875e-004	8.871034e-001	5.179212e+000	3.193429e+000	1.000000e+000	2.637717e+000
1.682124642908477e-004	8.797950e-001	5.086006e+000	4.636870e+000	1.000000e+000	4.012430e+000
1.683466765407475e-004	8.780993e-001	5.064532e+000	4.982041e+000	1.000000e+000	4.340988e+000
1.684808887906473e-004	8.763989e-001	5.043058e+000	5.332196e+000	1.000000e+000	4.674450e+000
1.686151010405471e-004	8.746940e-001	5.021584e+000	5.687334e+000	1.000000e+000	5.012814e+000
1.687493132904469e-004	8.729845e-001	5.000110e+000	6.047455e+000	1.000000e+000	5.356081e+000
1.688835255403467e-004	8.712703e-001	4.978636e+000	6.412560e+000	1.000000e+000	5.704251e+000
1.690177377902464e-004	8.695516e-001	4.957162e+000	6.782649e+000	1.000000e+000	6.057324e+000
1.691519500401462e-004	8.678282e-001	4.935688e+000	7.157721e+000	1.000000e+000	6.415300e+000
1.692358359475497e-004	8.667486e-001	4.922266e+000	7.397309e+000	1.000000e+000	6.659812e+000
1.694036077623567e-004	8.645835e-001	4.895423e+000	7.804875e+000	1.000000e+000	7.119149e+000
1.697391513919705e-004	8.602391e-001	4.841736e+000	8.230927e+000	1.000000e+000	7.669583e+000
1.703123964884185e-004	8.527988e-001	4.750017e+000	8.409904e+000	1.000000e+000	8.083619e+000
1.707672224721796e-004	8.468959e-001	4.677244e+000	8.423604e+000	1.000000e+000	8.290475e+000
1.712308880600145e-004	8.408890e-001	4.603058e+000	8.430334e+000	1.000000e+000	8.429146e+000
1.712453776096343e-004	8.407018e-001	4.600739e+000	8.430491e+000	1.000000e+000	8.430630e+000
1.712743567088740e-004	8.403279e-001	4.596103e+000	8.430763e+000	1.000000e+000	8.430976e+000
1.713323149073534e-004	8.395807e-001	4.586830e+000	8.431284e+000	1.000000e+000	8.431627e+000
1.714482313043121e-004	8.380886e-001	4.568283e+000	8.432248e+000	1.000000e+000	8.432796e+000
1.716800640982295e-004	8.351130e-001	4.531190e+000	8.433923e+000	1.000000e+000	8.434734e+000
1.721437296860644e-004	8.291955e-001	4.457003e+000	8.436592e+000	1.000000e+000	8.437678e+000
1.729685446491570e-004	8.187534e-001	4.325033e+000	8.440169e+000	1.000000e+000	8.441467e+000
1.737699798432944e-004	8.087195e-001	4.196803e+000	8.442726e+000	1.000000e+000	8.444092e+000
1.748431646768625e-004	7.954659e-001	4.025094e+000	8.445284e+000	1.000000e+000	8.446646e+000
1.759710400880301e-004	7.817689e-001	3.844634e+000	8.447415e+000	1.000000e+000	8.448732e+000
1.794651627524042e-004	7.408638e-001	3.285574e+000	8.452360e+000	1.000000e+000	8.453485e+000
1.823594477992145e-004	7.087935e-001	2.822488e+000	8.455486e+000	1.000000e+000	8.456470e+000
1.863548432862078e-004	6.671803e-001	2.183225e+000	8.458966e+000	1.000000e+000	8.459788e+000
1.921451024812593e-004	6.123601e-001	1.256784e+000	8.462813e+000	1.000000e+000	8.463458e+000
2.000000000000002e-004	5.444258e-001	1.776357e-015	8.466915e+000	1.000000e+000	8.467372e+000
2.054984282631188e-004	5.062529e-001	8.797485e-001	8.468671e+000	1.000000e+000	8.469042e+000
2.117823462781115e-004	4.705194e-001	1.885175e+000	8.470176e+000	1.000000e+000	8.470469e+000
2.215479712781115e-004	4.285280e-001	3.447675e+000	8.471782e+000	1.000000e+000	8.471989e+000
2.313135962781115e-004	4.032300e-001	5.010175e+000	8.472689e+000	1.000000e+000	8.472843e+000
2.410792212781115e-004	3.935658e-001	6.572675e+000	8.473061e+000	1.000000e+000	8.473186e+000
2.450578218632536e-004	3.945428e-001	7.209251e+000	8.473067e+000	1.000000e+000	8.473188e+000
2.472308061766826e-004	3.968862e-001	7.556929e+000	8.473019e+000	1.000000e+000	8.473134e+000
2.486594048368825e-004	3.989605e-001	7.785505e+000	8.472972e+000	1.000000e+000	8.473072e+000
2.488777505648182e-004	3.993220e-001	7.820440e+000	8.472963e+000	1.000000e+000	8.473056e+000
2.493144420206897e-004	4.001027e-001	7.890311e+000	8.472944e+000	1.000000e+000	8.473006e+000
2.500000000000004e-004	4.013723e-001	8.000000e+000	8.472914e+000	1.000000e+000	8.472906e+000
2.501839919332749e-004	4.017337e-001	7.970562e+000	8.472904e+000	1.000000e+000	8.472876e+000
2.504027551206972e-004	4.021710e-001	7.935559e+000	8.472894e+000	1.000000e+000	8.472848e+000
2.506302232553517e-004	4.026362e-001	7.899164e+000	8.472882e+000	1.000000e+000	8.472829e+000
2.510232696149738e-004	4.034694e-001	7.836277e+000	8.472861e+000	1.000000e+000	8.472816e+000
2.517607707789866e-004	4.051142e-001	7.718277e+000	8.472820e+000	1.000000e+000	8.472815e+000
2.527177895720744e-004	4.073837e-001	7.565154e+000	8.472762e+000	1.000000e+000	8.472815e+000
2.535949821824012e-004	4.096125e-001	7.424803e+000	8.472704e+000	1.000000e+000	8.472795e+000
2.545874464110622e-004	4.123399e-001	7.266008e+000	8.472631e+000	1.000000e+000	8.472747e+000
2.561228601019399e-004	4.170134e-001	7.020342e+000	8.472503e+000	1.000000e+000	8.472640e+000
2.589573661336754e-004	4.268804e-001	6.566822e+000	8.472221e+000	1.000000e+000	8.472383e+000
2.628439587069098e-004	4.430916e-001	5.944967e+000	8.471725e+000	1.000000e+000	8.471916e+000
2.692673817463583e-004	4.767364e-001	4.917219e+000	8.470568e+000	1.000000e+000	8.470819e+000
2.790330067463583e-004	5.412796e-001	3.354719e+000	8.467936e+000	1.000000e+000	8.468324e+000
2.887986317463584e-004	6.179828e-001	1.792219e+000	8.464300e+000	1.000000e+000	8.464871e+000
2.902343750000005e-004	6.307933e-001	1.562500e+000	8.463585e+000	1.000000e+000	8.464191e+000
2.942570269854321e-004	6.697900e-001	9.188757e-001	8.461143e+000	1.000000e+000	8.461870e+000
2.965593579417272e-004	6.936374e-001	5.505027e-001	8.459449e+000	1.000000e+000	8.460258e+000
3.000000000000004e-004	7.302946e-001	1.776357e-015	8.456672e+000	1.000000e+000	8.457617e+000
3.024084494407917e-004	7.575608e-001	3.853519e-001	8.454226e+000	1.000000e+000	8.455289e+000
3.051609630874103e-004	7.899272e-001	8.257541e-001	8.450894e+000	1.000000e+000	8.447853e+000
3.083846357470366e-004	8.288407e-001	1.341542e+000	8.446431e+000	1.000000e+000	8.401709e+000
3.086264192127383e-004	8.318233e-001	1.380227e+000	8.446040e+000	1.000000e+000	8.372133e+000
3.091099861441418e-004	8.378662e-001	1.457598e+000	8.445176e+000	1.000000e+000	8.285783e+000
3.100771200069487e-004	8.499845e-001	1.612339e+000	8.443405e+000	1.000000e+000	8.187728e+000
3.111904097176154e-004	8.639580e-001	1.790466e+000	8.441233e+000	1.000000e+000	8.139506e+000
3.124361065700442e-004	8.795990e-001	1.989777e+000	8.438465e+000	1.000000e+000	8.123772e+000
3.147535191775975e-004	9.086776e-001	2.360563e+000	8.432255e+000	1.000000e+000	8.116091e+000
3.198476428872205e-004	9.724689e-001	3.175623e+000	8.394945e+000	1.000000e+000	8.086166e+000
3.235667810178670e-004	1.018948e+000	3.770685e+000	8.259665e+000	1.000000e+000	7.958927e+000
3.239284559415918e-004	1.023462e+000	3.828553e+000	8.154578e+000	1.000000e+000	7.856384e+000
3.246518057890414e-004	1.032479e+000	3.944289e+000	7.679397e+000	1.000000e+000	7.394186e+000
3.260985054839404e-004	1.050492e+000	4.175761e+000	6.412787e+000	1.000000e+000	6.169611e+000
3.266727192731648e-004	1.057632e+000	4.267635e+000	5.791388e+000	1.000000e+000	5.571128e+000
3.270347835270334e-004	1.062128e+000	4.325565e+000	5.337228e+000	1.000000e+000	5.134482e+000
3.272431739260376e-004	1.064713e+000	4.358908e+000	5.057756e+000	1.000000e+000	4.865679e+000
3.274039254216286e-004	1.066706e+000	4.384628e+000	4.833176e+000	1.000000e+000	4.649299e+000
3.275116606592564e-004	1.068042e+000	4.401865e+000	4.678260e+000	1.000000e+000	4.499660e+000
3.276436959511935e-004	1.069678e+000	4.422991e+000	4.483700e+000	1.000000e+000	4.311215e+000
3.277722565036006e-004	1.071270e+000	4.443561e+000	4.289926e+000	1.000000e+000	4.122999e+000
3.279037931884203e-004	1.072898e+000	4.464607e+000	4.087012e+000	1.000000e+000	3.925272e+000
3.280353193649631e-004	1.074526e+000	4.485651e+000	3.879347e+000	1.000000e+000	3.722237e+000
3.281798368180249e-004	1.076313e+000	4.508774e+000	3.646126e+000	1.000000e+000	3.493504e+000
3.282886483457359e-004	1.077658e+000	4.526184e+000	3.466719e+000	1.000000e+000	3.316880e+000
3.284190167112048e-004	1.079269e+000	4.547043e+000	3.247190e+000	1.000000e+000	3.099329e+000
3.285416118903246e-004	1.080782e+000	4.566658e+000	3.035256e+000	1.000000e+000	2.883765e+000
3.287554383800986e-004	1.083420e+000	4.600870e+000	2.651345e+000	1.000000e+000	2.462900e+000
3.289724596681589e-004	1.086092e+000	4.635593e+000	2.243653e+000	1.000000e+000	1.972629e+000
3.292064953701285e-004	1.088965e+000	4.673039e+000	1.787741e+000	1.000000e+000	1.413469e+000
3.294584833538555e-004	1.092051e+000	4.713357e+000	1.288895e+000	1.000000e+000	8.288510e-001
3.294821072273299e-004	1.092339e+000	4.717137e+000	1.242304e+000	1.000000e+000	7.827819e-001
3.295766027212275e-004	1.093489e+000	4.732256e+000	1.054552e+000	1.000000e+000	6.032868e-001
3.297025967130909e-004	1.095019e+000	4.752416e+000	7.997969e-001	1.000000e+000	3.601518e-001
3.299545846968179e-004	1.098061e+000	4.792734e+000	2.750967e-001	1.000000e+000	-1.401415e-001
3.304585606642717e-004	1.104091e+000	4.873370e+000	-8.259264e-001	1.000000e+000	-1.189335e+000
