time	V(vin)	V(vout)
0.000000000000000e+000	-1.000000e+000	1.101069e-005
1.702857138043887e-013	-1.000000e+000	1.101067e-005
3.405714276087775e-013	-1.000000e+000	1.101066e-005
5.108571414131662e-013	-1.000000e+000	1.101067e-005
6.811428552175549e-013	-1.000000e+000	1.101068e-005
8.514285690219436e-013	-1.000000e+000	1.101071e-005
1.021714282826332e-012	-1.000000e+000	1.101074e-005
1.191999996630721e-012	-1.000000e+000	1.101079e-005
1.959999983153603e-012	-1.000000e+000	1.101119e-005
9.596730117325248e-009	-9.999616e-001	1.590780e-005
1.919150023466735e-008	-9.999232e-001	1.558565e-005
2.878627035200944e-008	-9.998848e-001	1.004476e-005
3.838104046935154e-008	-9.998465e-001	-7.148802e-007
4.797581058669363e-008	-9.998081e-001	-1.669327e-005
5.757058070403573e-008	-9.997697e-001	-3.789041e-005
6.716535082137779e-008	-9.997314e-001	-6.430630e-005
1.047214099741007e-007	-9.995811e-001	-2.367827e-004
1.602613083497273e-007	-9.993590e-001	-7.085121e-004
2.449304960207054e-007	-9.990203e-001	-1.979749e-003
4.142688713626613e-007	-9.983429e-001	-6.585465e-003
7.529456220465734e-007	-9.969882e-001	-2.384744e-002
1.430299123414397e-006	-9.942788e-001	-9.005028e-002
2.785006126150045e-006	-9.888600e-001	-3.372104e-001
5.285543581925882e-006	-9.788578e-001	-1.072085e+000
7.863186469846971e-006	-9.685473e-001	-2.133397e+000
1.112844757310119e-005	-9.554862e-001	-3.753781e+000
1.429811329210686e-005	-9.428076e-001	-5.335022e+000
1.799915385615748e-005	-9.280034e-001	-6.876919e+000
2.096980057555581e-005	-9.161208e-001	-7.682792e+000
2.313361002228300e-005	-9.074656e-001	-7.896939e+000
2.515010357428840e-005	-8.993996e-001	-7.767379e+000
2.718408431452155e-005	-8.912637e-001	-7.327242e+000
2.986696775362813e-005	-8.805321e-001	-6.372057e+000
3.286110265580005e-005	-8.685556e-001	-4.988320e+000
3.615003962340911e-005	-8.553998e-001	-3.307747e+000
3.880340592806466e-005	-8.447864e-001	-2.009765e+000
4.097486296555749e-005	-8.361006e-001	-1.114285e+000
4.287599153475084e-005	-8.284960e-001	-5.329410e-001
4.462408090338769e-005	-8.215037e-001	-2.028078e-001
4.622140432336309e-005	-8.151144e-001	-9.231195e-002
4.780122038030937e-005	-8.087951e-001	-1.817936e-001
4.983017672370694e-005	-8.006793e-001	-5.670445e-001
5.232428736973214e-005	-7.907029e-001	-1.378459e+000
5.534459502863361e-005	-7.786216e-001	-2.710276e+000
5.848143197350326e-005	-7.660743e-001	-4.279868e+000
6.194652465195844e-005	-7.522139e-001	-5.918321e+000
6.557313581444352e-005	-7.377074e-001	-7.246883e+000
6.801447955555112e-005	-7.279421e-001	-7.760598e+000
7.005813437637260e-005	-7.197675e-001	-7.842914e+000
7.219659037782257e-005	-7.112136e-001	-7.597805e+000
7.434498546911972e-005	-7.026201e-001	-7.031605e+000
7.724443781790042e-005	-6.910223e-001	-5.885539e+000
8.036837681776426e-005	-6.785265e-001	-4.379859e+000
8.326696277125370e-005	-6.669322e-001	-2.909154e+000
8.572197989314386e-005	-6.571121e-001	-1.763281e+000
8.785381690033264e-005	-6.485847e-001	-9.538978e-001
8.972419989880252e-005	-6.411032e-001	-4.503949e-001
9.143877797722285e-005	-6.342449e-001	-1.889206e-001
9.293329856618875e-005	-6.282668e-001	-1.350151e-001
9.446276156987172e-005	-6.221489e-001	-2.670550e-001
9.657848110317556e-005	-6.136861e-001	-7.233284e-001
9.915969671023638e-005	-6.033612e-001	-1.617052e+000
1.022858126844673e-004	-5.908567e-001	-3.032842e+000
1.054637331704613e-004	-5.781451e-001	-4.610094e+000
1.090090837712140e-004	-5.639637e-001	-6.200974e+000
1.126925656441868e-004	-5.492297e-001	-7.401554e+000
1.150476731254040e-004	-5.398093e-001	-7.779421e+000
1.170775118837348e-004	-5.316899e-001	-7.758591e+000
1.191541800521999e-004	-5.233833e-001	-7.420079e+000
1.215710413383637e-004	-5.137159e-001	-6.680873e+000
1.245140935221968e-004	-5.019436e-001	-5.431056e+000
1.279161345559912e-004	-4.883355e-001	-3.758309e+000
1.307096834135117e-004	-4.771613e-001	-2.387852e+000
1.330079623109741e-004	-4.679682e-001	-1.403438e+000
1.350452435403566e-004	-4.598190e-001	-7.336705e-001
1.368526513525237e-004	-4.525894e-001	-3.466008e-001
1.385002205021500e-004	-4.459991e-001	-1.947329e-001
1.402633957655257e-004	-4.389464e-001	-2.573220e-001
1.422882804074167e-004	-4.308469e-001	-6.021605e-001
1.447590445384055e-004	-4.209638e-001	-1.361003e+000
1.477116542389153e-004	-4.091534e-001	-2.611627e+000
1.509160983985087e-004	-3.963356e-001	-4.173107e+000
1.543445684997751e-004	-3.826217e-001	-5.771850e+000
1.580129039490326e-004	-3.679484e-001	-7.117685e+000
1.604997865027650e-004	-3.580008e-001	-7.656844e+000
1.625527564042228e-004	-3.497890e-001	-7.759673e+000
1.647132397464095e-004	-3.411470e-001	-7.539783e+000
1.668022046918401e-004	-3.327912e-001	-7.021300e+000
1.696975231014434e-004	-3.212099e-001	-5.924316e+000
1.727632448163196e-004	-3.089470e-001	-4.493081e+000
1.757447930153465e-004	-2.970208e-001	-3.013960e+000
1.782728874841035e-004	-2.869084e-001	-1.853916e+000
1.804584986851360e-004	-2.781660e-001	-1.038040e+000
1.824055752695436e-004	-2.703777e-001	-5.258985e-001
1.841514479004727e-004	-2.633942e-001	-2.842060e-001
1.861073864860986e-004	-2.555705e-001	-2.630672e-001
1.878683222788199e-004	-2.485267e-001	-4.821220e-001
1.902799016821855e-004	-2.388804e-001	-1.115045e+000
1.929755671665712e-004	-2.280977e-001	-2.154109e+000
1.962815370820218e-004	-2.148739e-001	-3.707883e+000
1.995360644262131e-004	-2.018557e-001	-5.258743e+000
2.032459778600895e-004	-1.870161e-001	-6.740690e+000
2.062073494587948e-004	-1.751706e-001	-7.513413e+000
2.083734984560400e-004	-1.665060e-001	-7.722578e+000
2.103940868934860e-004	-1.584237e-001	-7.602624e+000
2.124323493220504e-004	-1.502706e-001	-7.184937e+000
2.151048876453770e-004	-1.395805e-001	-6.279761e+000
2.180975710760305e-004	-1.276097e-001	-4.961003e+000
2.217888130144419e-004	-1.128448e-001	-3.171779e+000
2.245841390621308e-004	-1.016634e-001	-1.896106e+000
2.267614861808918e-004	-9.295406e-002	-1.085241e+000
2.287251303707870e-004	-8.509948e-002	-5.735861e-001
2.305544954758638e-004	-7.778202e-002	-3.265244e-001
2.325665101897363e-004	-6.973396e-002	-3.191490e-001
2.344828253362538e-004	-6.206870e-002	-5.765193e-001
2.368918332754576e-004	-5.243267e-002	-1.234479e+000
2.396877689129699e-004	-4.124893e-002	-2.334168e+000
2.429864622507676e-004	-2.805416e-002	-3.882966e+000
2.463162757044608e-004	-1.473490e-002	-5.434716e+000
2.500315212536086e-004	1.260810e-004	-6.854680e+000
2.527480344549655e-004	1.099213e-002	-7.511897e+000
2.548606194796898e-004	1.944247e-002	-7.674878e+000
2.570987049294756e-004	2.839482e-002	-7.504997e+000
2.591193696894132e-004	3.647748e-002	-7.056037e+000
2.619699971594099e-004	4.787999e-002	-6.045774e+000
2.649440784509958e-004	5.977631e-002	-4.716122e+000
2.680848009012237e-004	7.233920e-002	-3.194679e+000
2.707282446541224e-004	8.291297e-002	-1.993896e+000
2.729763731334265e-004	9.190549e-002	-1.156364e+000
2.750037155791587e-004	1.000149e-001	-6.252478e-001
2.768867303465157e-004	1.075469e-001	-3.714329e-001
2.789563261852895e-004	1.158253e-001	-3.709440e-001
2.809920469653501e-004	1.239682e-001	-6.547782e-001
2.833934512141365e-004	1.335738e-001	-1.323815e+000
2.862601914517665e-004	1.450408e-001	-2.460640e+000
2.895606652667434e-004	1.582427e-001	-4.001067e+000
2.929456837473135e-004	1.717827e-001	-5.545879e+000
2.966697128858814e-004	1.866788e-001	-6.916969e+000
2.992336547876832e-004	1.969346e-001	-7.499018e+000
3.013124375720138e-004	2.052497e-001	-7.635158e+000
3.035106499100158e-004	2.140426e-001	-7.453834e+000
3.055322149953753e-004	2.221289e-001	-6.997903e+000
3.084046522220289e-004	2.336186e-001	-5.979170e+000
3.113960592611521e-004	2.455842e-001	-4.649714e+000
3.145122384196791e-004	2.580490e-001	-3.157243e+000
3.171495273060887e-004	2.685981e-001	-1.979334e+000
3.194102412470008e-004	2.776410e-001	-1.157548e+000
3.214629747212326e-004	2.858519e-001	-6.414468e-001
3.234030129016355e-004	2.936120e-001	-4.034550e-001
3.255104632799866e-004	3.020419e-001	-4.304191e-001
3.275592415837475e-004	3.102370e-001	-7.437324e-001
3.300406693572236e-004	3.201627e-001	-1.463391e+000
3.329346660121783e-004	3.317387e-001	-2.628987e+000
3.362881283569859e-004	3.451525e-001	-4.187919e+000
3.396980657889128e-004	3.587922e-001	-5.699815e+000
3.434771188803300e-004	3.739085e-001	-7.008567e+000
3.459708961284333e-004	3.838836e-001	-7.508001e+000
3.480264616005493e-004	3.921058e-001	-7.587966e+000
3.501786811257313e-004	4.007147e-001	-7.357966e+000
3.523215916119692e-004	4.092864e-001	-6.830132e+000
3.552285583983871e-004	4.209142e-001	-5.756227e+000
3.583465665521900e-004	4.333863e-001	-4.352839e+000
3.613305401848660e-004	4.453222e-001	-2.943194e+000
3.638818053412364e-004	4.555272e-001	-1.845193e+000
3.661287135431412e-004	4.645149e-001	-1.078915e+000
3.681928292662244e-004	4.727713e-001	-6.147225e-001
3.701995368531655e-004	4.807982e-001	-4.273195e-001
3.723349370697450e-004	4.893397e-001	-5.187750e-001
3.743855043211575e-004	4.975420e-001	-8.938501e-001
3.770344256905644e-004	5.081377e-001	-1.729192e+000
3.799812338420871e-004	5.199249e-001	-2.959142e+000
3.834142390511437e-004	5.336570e-001	-4.549219e+000
3.868679862957654e-004	5.474719e-001	-5.998009e+000
3.907423121770935e-004	5.629693e-001	-7.177712e+000
3.931353430980735e-004	5.725414e-001	-7.531983e+000
3.951721641945632e-004	5.806887e-001	-7.502302e+000
3.972538070261172e-004	5.890152e-001	-7.173331e+000
3.996974905055287e-004	5.987899e-001	-6.462171e+000
4.026539694536944e-004	6.106158e-001	-5.278374e+000
4.060858390574576e-004	6.243433e-001	-3.699419e+000
4.089377216565388e-004	6.357509e-001	-2.404269e+000
4.113210942563896e-004	6.452844e-001	-1.477874e+000
4.134936336780158e-004	6.539745e-001	-8.597264e-001
4.155578819580841e-004	6.622315e-001	-5.352441e-001
4.178098462012552e-004	6.712394e-001	-4.899074e-001
4.198896615698019e-004	6.795586e-001	-7.412422e-001
4.222306498447185e-004	6.889226e-001	-1.348806e+000
4.250751821499781e-004	7.003008e-001	-2.419724e+000
4.283808548142504e-004	7.135234e-001	-3.901258e+000
4.318026643510937e-004	7.272106e-001	-5.418715e+000
4.355348344966135e-004	7.421393e-001	-6.768980e+000
4.381631565501327e-004	7.526526e-001	-7.364980e+000
4.402602096461271e-004	7.610408e-001	-7.512098e+000
4.424815127219567e-004	7.699261e-001	-7.346773e+000
4.445067212734711e-004	7.780269e-001	-6.914158e+000
4.473582326120704e-004	7.894329e-001	-5.946033e+000
4.503400885723784e-004	8.013604e-001	-4.670774e+000
4.535361736279537e-004	8.141447e-001	-3.194046e+000
4.562381828907529e-004	8.249527e-001	-2.031410e+000
4.585556923518049e-004	8.342228e-001	-1.227342e+000
4.606992555348269e-004	8.427970e-001	-7.296146e-001
4.628225919723203e-004	8.512903e-001	-5.180717e-001
4.650644047339614e-004	8.602576e-001	-6.033689e-001
4.671271284285651e-004	8.685085e-001	-9.720393e-001
4.697880245507098e-004	8.791521e-001	-1.796312e+000
4.727277544964565e-004	8.909110e-001	-2.998790e+000
4.762241785313630e-004	9.048967e-001	-4.580925e+000
4.796845671501026e-004	9.187382e-001	-5.988706e+000
4.836111092390380e-004	9.344444e-001	-7.132822e+000
4.860057938328104e-004	9.440232e-001	-7.458714e+000
4.880428066073938e-004	9.521712e-001	-7.409740e+000
4.901190993247995e-004	9.604764e-001	-7.068585e+000
4.926164259583850e-004	9.704657e-001	-6.336376e+000
4.955874335049143e-004	9.823498e-001	-5.185642e+000
4.965073300643930e-004	9.860293e-001	-4.773854e+000
4.981602078810426e-004	9.926409e-001	-3.986127e+000
4.984470030522264e-004	9.955592e-001	-3.849336e+000
4.987337982234103e-004	9.978232e-001	-3.712443e+000
4.990205933945942e-004	9.994329e-001	-3.575449e+000
4.993073885657780e-004	1.000388e+000	-3.438354e+000
4.995941837369619e-004	1.000690e+000	-3.301157e+000
4.998809789081458e-004	1.000336e+000	-3.163859e+000
5.001677740793296e-004	9.993289e-001	-3.026459e+000
5.006556271566910e-004	9.973775e-001	-2.767303e+000
5.013060979265061e-004	9.947756e-001	-2.365616e+000
5.026070394661363e-004	9.895719e-001	-1.410605e+000
5.047121832649820e-004	9.811513e-001	4.200766e-001
5.068629472356326e-004	9.725482e-001	2.540429e+000
5.091878421991131e-004	9.632486e-001	4.940158e+000
5.120553107359559e-004	9.517788e-001	7.419561e+000
5.140640272133935e-004	9.437439e-001	8.359848e+000
5.143683127658563e-004	9.425268e-001	8.396685e+000
5.208695162976594e-004	9.165220e-001	8.379404e+000
5.246178675890900e-004	9.015285e-001	8.181435e+000
5.274476196128364e-004	8.902096e-001	7.625448e+000
5.302502794806212e-004	8.789989e-001	6.551368e+000
5.334290855469538e-004	8.662837e-001	4.917047e+000
5.369260370764188e-004	8.522959e-001	2.949732e+000
5.394509304991243e-004	8.421963e-001	1.606188e+000
5.413582538357465e-004	8.345670e-001	7.575419e-001
5.431470638055117e-004	8.274118e-001	1.677725e-001
5.449346441137513e-004	8.202614e-001	-1.919128e-001
5.467010572454993e-004	8.131958e-001	-2.950622e-001
5.486968535172435e-004	8.052126e-001	-1.117835e-001
5.507101215479629e-004	7.971595e-001	3.927156e-001
5.535027780920678e-004	7.859889e-001	1.506249e+000
5.561298279027025e-004	7.754807e-001	2.847558e+000
5.593984279674654e-004	7.624063e-001	4.678362e+000
5.625972498175489e-004	7.496110e-001	6.302933e+000
5.663815375219773e-004	7.344739e-001	7.862457e+000
5.666806860462069e-004	7.332773e-001	7.952215e+000
5.672789830946662e-004	7.308841e-001	8.072474e+000
5.684755771915846e-004	7.260977e-001	8.214889e+000
5.704168681991609e-004	7.183325e-001	8.225407e+000
5.723707578188094e-004	7.105170e-001	7.962926e+000
5.747357425294978e-004	7.010570e-001	7.271851e+000
5.775380772074135e-004	6.898477e-001	6.051105e+000
5.807978959702129e-004	6.768084e-001	4.318430e+000
5.836156163291079e-004	6.655375e-001	2.749048e+000
5.859134114868871e-004	6.563464e-001	1.566021e+000
5.878616402503901e-004	6.485534e-001	7.377264e-001
5.896693186457101e-004	6.413227e-001	1.782347e-001
5.914848821082190e-004	6.340605e-001	-1.491515e-001
5.932322786133077e-004	6.270709e-001	-2.207212e-001
5.951061660954723e-004	6.195753e-001	-2.193689e-002
5.972159657752234e-004	6.111361e-001	5.250852e-001
5.999746499286640e-004	6.001014e-001	1.633711e+000
6.027209938053201e-004	5.891160e-001	3.030761e+000
6.059762398240574e-004	5.760950e-001	4.818627e+000
6.092653361208836e-004	5.629387e-001	6.425469e+000
6.130475489427161e-004	5.478098e-001	7.884958e+000
6.133501058255458e-004	5.465996e-001	7.966559e+000
6.139552195912053e-004	5.441791e-001	8.069613e+000
6.151654471225242e-004	5.393382e-001	8.181216e+000
6.171239343916881e-004	5.315043e-001	8.140502e+000
6.191278286802155e-004	5.234887e-001	7.809330e+000
6.216147066205466e-004	5.135412e-001	7.009598e+000
6.244549572066199e-004	5.021802e-001	5.716330e+000
6.278819688556064e-004	4.884721e-001	3.879467e+000
6.306442447248518e-004	4.774230e-001	2.379997e+000
6.328398234330032e-004	4.686407e-001	1.313150e+000
6.347096236841086e-004	4.611615e-001	5.883260e-001
6.365010185057442e-004	4.539959e-001	1.064403e-001
6.382884888833876e-004	4.468460e-001	-1.434952e-001
6.400069142577029e-004	4.399723e-001	-1.482343e-001
6.418438618096841e-004	4.326245e-001	1.148907e-001
6.441651759064521e-004	4.233393e-001	7.939060e-001
6.469580421314305e-004	4.121678e-001	1.987619e+000
6.498671738289952e-004	4.005313e-001	3.500811e+000
6.531466649747157e-004	3.874134e-001	5.258854e+000
6.565698554874182e-004	3.737206e-001	6.829241e+000
6.597160516472709e-004	3.611358e-001	7.920380e+000
6.600248121451796e-004	3.599008e-001	7.991765e+000
6.606423331409971e-004	3.574307e-001	8.077044e+000
6.618773751326322e-004	3.524905e-001	8.151021e+000
6.638375246743189e-004	3.446499e-001	8.047795e+000
6.658482974874243e-004	3.366068e-001	7.652643e+000
6.684890485351353e-004	3.260438e-001	6.733603e+000
6.713800988328677e-004	3.144796e-001	5.371840e+000
6.749770593605571e-004	3.000918e-001	3.445086e+000
6.777197720867315e-004	2.891209e-001	2.009425e+000
6.798139720580032e-004	2.807441e-001	1.064203e+000
6.816163041583406e-004	2.735348e-001	4.424540e-001
6.833865109849856e-004	2.664540e-001	4.630838e-002
6.851503706208953e-004	2.593985e-001	-1.219098e-001
6.868192296765663e-004	2.527231e-001	-4.992770e-002
6.888740689324188e-004	2.445037e-001	3.389364e-001
6.913117087622675e-004	2.347532e-001	1.153095e+000
6.941640554819372e-004	2.233438e-001	2.460841e+000
6.972046674279143e-004	2.111813e-001	4.067542e+000
7.005471360713008e-004	1.978115e-001	5.780404e+000
7.041015132014231e-004	1.835940e-001	7.364534e+000
7.044248022600322e-004	1.823008e-001	7.479163e+000
7.050713803772503e-004	1.797145e-001	7.654150e+000
7.063645366116863e-004	1.745419e-001	7.907042e+000
7.083629753654900e-004	1.665481e-001	8.070946e+000
7.104885746325484e-004	1.580457e-001	7.943278e+000
7.125856466944430e-004	1.496574e-001	7.483469e+000
7.152533774301773e-004	1.389865e-001	6.499809e+000
7.182445154697155e-004	1.270220e-001	5.059617e+000
7.215054643848316e-004	1.139782e-001	3.317920e+000
7.241134951773433e-004	1.035460e-001	1.976226e+000
7.262235576943021e-004	9.510577e-002	1.049440e+000
7.280341426976192e-004	8.786344e-002	4.470725e-001
7.297965474759141e-004	8.081382e-002	7.403219e-002
7.315507695087967e-004	7.379693e-002	-7.456944e-002
7.331998469125160e-004	6.720062e-002	1.030828e-002
7.352543814571012e-004	5.898248e-002	4.113060e-001
7.377249312317577e-004	4.910028e-002	1.244704e+000
7.406304586514400e-004	3.747818e-002	2.576511e+000
7.437016924351457e-004	2.519324e-002	4.183462e+000
7.470825664982822e-004	1.166974e-002	5.876517e+000
7.506635692425005e-004	-2.654269e-003	7.414824e+000
7.509269447691191e-004	-3.707771e-003	7.503932e+000
7.514536958223562e-004	-5.814775e-003	7.641021e+000
7.525071979288306e-004	-1.002878e-002	7.842028e+000
7.546142021417791e-004	-1.845680e-002	8.019506e+000
7.566767276075028e-004	-2.670690e-002	7.908787e+000
7.588328560772186e-004	-3.533142e-002	7.451341e+000
7.614216470603893e-004	-4.568658e-002	6.519482e+000
7.644578516300231e-004	-5.783140e-002	5.081245e+000
7.680512384832882e-004	-7.220495e-002	3.196361e+000
7.707400977205119e-004	-8.296038e-002	1.849232e+000
7.728089864020610e-004	-9.123594e-002	9.782808e-001
7.745987999753961e-004	-9.839519e-002	4.202017e-001
7.763506371979483e-004	-1.054025e-001	8.566578e-002
7.780929133365444e-004	-1.123716e-001	-2.886832e-002
7.797075545738039e-004	-1.188302e-001	8.057077e-002
7.817605632146626e-004	-1.270422e-001	5.089705e-001
7.842959839599329e-004	-1.371839e-001	1.388197e+000
7.872340989678475e-004	-1.489364e-001	2.746068e+000
7.903620648779075e-004	-1.614483e-001	4.369055e+000
7.937711997442593e-004	-1.750848e-001	6.024444e+000
7.974064677953597e-004	-1.896259e-001	7.380727e+000
7.998313369868653e-004	-1.993253e-001	7.892382e+000
8.018708403221927e-004	-2.074834e-001	7.963988e+000
8.039979855147057e-004	-2.159919e-001	7.698745e+000
8.061823781818448e-004	-2.247295e-001	7.091663e+000
8.090858206873174e-004	-2.363433e-001	5.893584e+000
8.122464844092589e-004	-2.489859e-001	4.312944e+000
8.150703455595366e-004	-2.602814e-001	2.833491e+000
8.174556809219228e-004	-2.698227e-001	1.684792e+000
8.195243622019878e-004	-2.780975e-001	8.700435e-001
8.213274633070725e-004	-2.853099e-001	3.604364e-001
8.230522133709986e-004	-2.922089e-001	7.769560e-002
8.245818286295147e-004	-2.983273e-001	9.346449e-003
8.260941024195199e-004	-3.043764e-001	1.328245e-001
8.281737127396395e-004	-3.126948e-001	5.803756e-001
8.307281388207237e-004	-3.229125e-001	1.473019e+000
8.337139105946626e-004	-3.348556e-001	2.851358e+000
8.368636357885078e-004	-3.474545e-001	4.468098e+000
8.403094864640245e-004	-3.612379e-001	6.101960e+000
8.439667570674026e-004	-3.758670e-001	7.408811e+000
8.463556643262403e-004	-3.854226e-001	7.870651e+000
8.483901499272135e-004	-3.935606e-001	7.908670e+000
8.504936038784410e-004	-4.019744e-001	7.616069e+000
8.527630074547161e-004	-4.110520e-001	6.959556e+000
8.556776718071571e-004	-4.227107e-001	5.738033e+000
8.589237634339130e-004	-4.356951e-001	4.114960e+000
8.616946011619652e-004	-4.467784e-001	2.686445e+000
8.640357569582280e-004	-4.561430e-001	1.593406e+000
8.660925289182117e-004	-4.643701e-001	8.208393e-001
8.678889454341288e-004	-4.715558e-001	3.478588e-001
