time	V(vin)	V(vout)
0.000000000000000e+000	-1.000000e+001	8.454711e+000
9.791790144717910e-007	-9.960833e+000	8.455754e+000
1.958358028943582e-006	-9.921666e+000	8.456925e+000
2.937537043415373e-006	-9.882499e+000	8.458226e+000
3.916716057887164e-006	-9.843331e+000	8.459657e+000
4.895895072358955e-006	-9.804164e+000	8.461216e+000
5.875074086830746e-006	-9.764997e+000	8.462905e+000
6.854253101302535e-006	-9.725830e+000	8.464723e+000
1.079535427666971e-005	-9.568186e+000	8.469796e+000
1.665472927666971e-005	-9.333811e+000	8.475038e+000
2.165539531934282e-005	-9.133784e+000	8.477241e+000
2.679384698518152e-005	-8.928246e+000	8.477760e+000
3.216282605276969e-005	-8.713487e+000	8.477765e+000
2.431003260527698e-004	-2.759870e-001	8.474680e+000
2.600129932528233e-004	4.005197e-001	8.413998e+000
2.612497448063566e-004	4.499898e-001	8.370727e+000
2.614213285273456e-004	4.568531e-001	8.321558e+000
2.616902524710194e-004	4.676101e-001	8.050529e+000
2.619998338239882e-004	4.799933e-001	7.423966e+000
2.622884408137432e-004	4.915376e-001	6.440193e+000
2.627800613190111e-004	5.112024e-001	3.802942e+000
2.632655339429471e-004	5.306213e-001	-4.840372e-002
2.636658821606969e-004	5.466353e-001	-4.275326e+000
2.639630380422410e-004	5.585215e-001	-7.041493e+000
2.642879496473354e-004	5.715179e-001	-8.400465e+000
2.644191504705288e-004	5.767660e-001	-8.439185e+000
2.654737932700538e-004	6.189517e-001	-8.454665e+000
2.665284360695789e-004	6.611374e-001	-8.466765e+000
2.675830788691040e-004	7.033231e-001	-8.475483e+000
2.686377216686290e-004	7.455088e-001	-8.480821e+000
2.696923644681540e-004	7.876945e-001	-8.482778e+000
2.707470072676791e-004	8.298802e-001	-8.481355e+000
2.718016500672042e-004	8.720660e-001	-8.476550e+000
5.001677740793296e-004	9.993289e+000	-8.476714e+000
7.435648177648063e-004	2.574074e-001	-8.474587e+000
7.460333331742858e-004	1.586667e-001	-8.479910e+000
7.485018485837653e-004	5.992613e-002	-8.479705e+000
7.509703639932447e-004	-3.881449e-002	-8.473975e+000
7.534388794027242e-004	-1.375551e-001	-8.462718e+000
7.559073948122037e-004	-2.362957e-001	-8.445935e+000
7.583759102216831e-004	-3.350363e-001	-8.423625e+000
7.608444256311626e-004	-4.337769e-001	-8.395789e+000
7.611842654657772e-004	-4.473705e-001	-8.377337e+000
7.614481452223110e-004	-4.579257e-001	-8.324362e+000
7.616433784010153e-004	-4.657350e-001	-8.172956e+000
7.618528343768440e-004	-4.741133e-001	-7.826145e+000
7.620629188704526e-004	-4.825167e-001	-7.292723e+000
7.623847702657993e-004	-4.953907e-001	-6.110238e+000
7.627830442464025e-004	-5.113217e-001	-3.940080e+000
7.632194531512074e-004	-5.287780e-001	-4.871278e-001
7.636427304598036e-004	-5.457091e-001	3.914069e+000
7.639310864265750e-004	-5.572434e-001	6.670539e+000
7.642558313617721e-004	-5.702332e-001	8.366805e+000
7.642996815070378e-004	-5.719872e-001	8.430756e+000
7.653684329846643e-004	-6.147372e-001	8.450206e+000
7.664371844622908e-004	-6.574873e-001	8.465356e+000
7.675059359399173e-004	-7.002374e-001	8.476206e+000
7.685746874175438e-004	-7.429874e-001	8.482756e+000
7.696434388951703e-004	-7.857375e-001	8.485005e+000
7.707121903727969e-004	-8.284875e-001	8.482955e+000
7.717809418504233e-004	-8.712376e-001	8.476604e+000
9.654059772494765e-004	-8.616239e+000	8.477746e+000
9.712653522494765e-004	-8.850614e+000	8.477763e+000
9.771247272494764e-004	-9.084989e+000	8.477657e+000
9.829841022494764e-004	-9.319364e+000	8.476751e+000
9.877518820359786e-004	-9.510076e+000	8.474243e+000
9.927229123024637e-004	-9.708917e+000	8.469502e+000
9.956178150260227e-004	-9.824713e+000	8.465788e+000
1.000000002000000e-003	-1.000000e+001	8.458121e+000
1.001446075741013e-003	-9.942157e+000	8.458627e+000
1.002892149482026e-003	-9.884315e+000	8.459487e+000
1.004338223223039e-003	-9.826472e+000	8.460702e+000
1.005784296964052e-003	-9.768629e+000	8.462272e+000
1.007230370705065e-003	-9.710786e+000	8.464197e+000
1.008676444446078e-003	-9.652943e+000	8.466476e+000
1.010122518187091e-003	-9.595099e+000	8.469110e+000
1.015624567476818e-003	-9.375017e+000	8.474384e+000
1.020475965087947e-003	-9.180962e+000	8.476935e+000
1.025622760669820e-003	-8.975090e+000	8.477718e+000
1.031482135669820e-003	-8.740715e+000	8.477771e+000
1.062128334128286e-003	-7.514867e+000	8.478291e+000
1.092774532586752e-003	-6.289019e+000	8.478391e+000
1.123420731045218e-003	-5.063171e+000	8.478071e+000
1.154066929503684e-003	-3.837323e+000	8.477329e+000
1.184713127962150e-003	-2.611475e+000	8.476168e+000
1.215359326420616e-003	-1.385627e+000	8.474585e+000
1.246005524879082e-003	-1.597791e-001	8.472582e+000
1.260280132669385e-003	4.112052e-001	8.410063e+000
1.261230142990918e-003	4.492056e-001	8.374265e+000
1.261384373056738e-003	4.553748e-001	8.330562e+000
1.261692833188378e-003	4.677132e-001	8.040324e+000
1.261974522258698e-003	4.789808e-001	7.495198e+000
1.262257899257334e-003	4.903159e-001	6.566212e+000
1.262722959472711e-003	5.089183e-001	4.228055e+000
1.263154494178517e-003	5.261797e-001	9.885514e-001
1.263612444346702e-003	5.444977e-001	-3.653669e+000
1.263903855113517e-003	5.561541e-001	-6.441874e+000
1.264241374281853e-003	5.696549e-001	-8.352135e+000
1.264285420007802e-003	5.714167e-001	-8.429921e+000
1.265352880444599e-003	6.141151e-001	-8.449737e+000
1.266420340881395e-003	6.568135e-001	-8.465168e+000
1.267487801318192e-003	6.995119e-001	-8.476214e+000
1.268555261754989e-003	7.422103e-001	-8.482875e+000
1.269622722191785e-003	7.849088e-001	-8.485151e+000
1.270690182628582e-003	8.276072e-001	-8.483042e+000
1.271757643065379e-003	8.703057e-001	-8.476547e+000
1.500167775079332e-003	9.993289e+000	-8.476714e+000
1.743564819597191e-003	2.574073e-001	-8.474587e+000
1.746033334931740e-003	1.586667e-001	-8.479910e+000
1.748501850266290e-003	5.992611e-002	-8.479705e+000
1.750970365600839e-003	-3.881451e-002	-8.473975e+000
1.753438880935389e-003	-1.375551e-001	-8.462718e+000
1.755907396269938e-003	-2.362957e-001	-8.445935e+000
1.758375911604488e-003	-3.350363e-001	-8.423625e+000
1.760844426939037e-003	-4.337769e-001	-8.395789e+000
1.761184266985865e-003	-4.473706e-001	-8.377337e+000
1.761448146639757e-003	-4.579257e-001	-8.324362e+000
1.761643379781547e-003	-4.657351e-001	-8.172956e+000
1.761852836152981e-003	-4.741133e-001	-7.826143e+000
1.762062920995436e-003	-4.825167e-001	-7.292720e+000
1.762384772399217e-003	-4.953908e-001	-6.110233e+000
1.762783046165106e-003	-5.113217e-001	-3.940074e+000
1.763219455293545e-003	-5.287781e-001	-4.871173e-001
1.763642732235294e-003	-5.457092e-001	3.914078e+000
1.763931088357756e-003	-5.572434e-001	6.670548e+000
1.764255833131936e-003	-5.702332e-001	8.366806e+000
1.764299683278399e-003	-5.719872e-001	8.430756e+000
1.765368435024668e-003	-6.147373e-001	8.450206e+000
1.766437186770936e-003	-6.574873e-001	8.465356e+000
1.767505938517205e-003	-7.002374e-001	8.476206e+000
1.768574690263474e-003	-7.429875e-001	8.482756e+000
1.769643442009742e-003	-7.857376e-001	8.485005e+000
1.770712193756011e-003	-8.284876e-001	8.482955e+000
1.771780945502280e-003	-8.712377e-001	8.476604e+000
1.965405984049826e-003	-8.616240e+000	8.477746e+000
1.971265359049826e-003	-8.850615e+000	8.477763e+000
1.977124734049826e-003	-9.084990e+000	8.477657e+000
1.982984109049826e-003	-9.319365e+000	8.476751e+000
1.987751891023289e-003	-9.510076e+000	8.474243e+000
1.992722922615529e-003	-9.708917e+000	8.469502e+000
1.995617826565144e-003	-9.824713e+000	8.465788e+000
2.000000003000002e-003	-1.000000e+001	8.458121e+000
2.001466699992145e-003	-9.941332e+000	8.458660e+000
2.002933396984288e-003	-9.882664e+000	8.459551e+000
2.004400093976431e-003	-9.823996e+000	8.460792e+000
2.005866790968574e-003	-9.765329e+000	8.462385e+000
2.007333487960717e-003	-9.706661e+000	8.464330e+000
2.008800184952860e-003	-9.647993e+000	8.466625e+000
2.010266881945003e-003	-9.589325e+000	8.469272e+000
2.015954091997925e-003	-9.361836e+000	8.474601e+000
2.020824267929817e-003	-9.167029e+000	8.477039e+000
2.025938597460518e-003	-8.962456e+000	8.477733e+000
2.031797972460518e-003	-8.728081e+000	8.477769e+000
2.242566353176906e-003	-2.973460e-001	8.475065e+000
2.256167508673752e-003	2.467002e-001	8.435832e+000
2.261338497883987e-003	4.535398e-001	8.366668e+000
2.261438511184790e-003	4.575403e-001	8.340250e+000
2.261616639044680e-003	4.646654e-001	8.201335e+000
2.261820205217360e-003	4.728081e-001	7.882622e+000
2.262005690957831e-003	4.802275e-001	7.437855e+000
2.262324839742388e-003	4.929935e-001	6.300277e+000
2.262798198339302e-003	5.119278e-001	3.711952e+000
2.263287796221159e-003	5.315117e-001	-2.359577e-001
2.263683528491565e-003	5.473410e-001	-4.450006e+000
2.263981738252616e-003	5.592694e-001	-7.197400e+000
2.264304027673182e-003	5.721610e-001	-8.349365e+000
2.264651165726421e-003	5.860465e-001	-8.447184e+000
2.266093958479377e-003	6.437582e-001	-8.460301e+000
2.267536751232333e-003	7.014699e-001	-8.470452e+000
2.268979543985290e-003	7.591816e-001	-8.477634e+000
2.270422336738247e-003	8.168933e-001	-8.481850e+000
2.271865129491203e-003	8.746051e-001	-8.483097e+000
2.273307922244159e-003	9.323168e-001	-8.481378e+000
2.274750714997116e-003	9.900285e-001	-8.476690e+000
2.500167776079333e-003	9.993289e+000	-8.476714e+000
2.743564847576361e-003	2.574063e-001	-8.474587e+000
2.746033360483467e-003	1.586657e-001	-8.479910e+000
2.748501873390574e-003	5.992523e-002	-8.479705e+000
2.750970386297680e-003	-3.881529e-002	-8.473975e+000
2.753438899204787e-003	-1.375558e-001	-8.462718e+000
2.755907412111893e-003	-2.362963e-001	-8.445934e+000
2.758375925018999e-003	-3.350368e-001	-8.423624e+000
2.760844437926106e-003	-4.337774e-001	-8.395788e+000
2.761184284851200e-003	-4.473712e-001	-8.377335e+000
2.761448161176863e-003	-4.579263e-001	-8.324354e+000
2.761643393121411e-003	-4.657356e-001	-8.172936e+000
2.761852862323218e-003	-4.741143e-001	-7.826086e+000
2.762062958479929e-003	-4.825182e-001	-7.292613e+000
2.762384810160481e-003	-4.953922e-001	-6.110080e+000
2.762783076960643e-003	-5.113229e-001	-3.939880e+000
2.763219493342451e-003	-5.287796e-001	-4.867742e-001
2.763642758386180e-003	-5.457101e-001	3.914372e+000
2.763931119558645e-003	-5.572446e-001	6.670844e+000
2.764255859112071e-003	-5.702342e-001	8.366831e+000
2.764299709297367e-003	-5.719882e-001	8.430758e+000
2.765368469757025e-003	-6.147387e-001	8.450207e+000
2.766437230216683e-003	-6.574891e-001	8.465356e+000
2.767505990676340e-003	-7.002395e-001	8.476206e+000
2.768574751135998e-003	-7.429899e-001	8.482755e+000
2.769643511595655e-003	-7.857403e-001	8.485004e+000
2.770712272055313e-003	-8.284907e-001	8.482954e+000
2.771781032514970e-003	-8.712412e-001	8.476604e+000
2.965406173184648e-003	-8.616247e+000	8.477746e+000
2.971265548184648e-003	-8.850622e+000	8.477763e+000
2.977124923184648e-003	-9.084997e+000	8.477657e+000
2.982984298184648e-003	-9.319372e+000	8.476751e+000
2.987752151100526e-003	-9.510086e+000	8.474243e+000
2.992723225701101e-003	-9.708929e+000	8.469502e+000
2.995618169458924e-003	-9.824727e+000	8.465788e+000
3.000000004000004e-003	-1.000000e+001	8.458121e+000
3.001065680180049e-003	-9.957373e+000	8.458086e+000
3.002131356360094e-003	-9.914746e+000	8.458423e+000
3.003197032540139e-003	-9.872119e+000	8.459134e+000
3.004262708720184e-003	-9.829492e+000	8.460218e+000
3.005328384900229e-003	-9.786865e+000	8.461675e+000
3.006394061080274e-003	-9.744238e+000	8.463505e+000
3.007459737260319e-003	-9.701611e+000	8.465708e+000
3.010768149212207e-003	-9.569274e+000	8.469847e+000
3.016627524212207e-003	-9.334899e+000	8.475025e+000
3.021596047014735e-003	-9.136158e+000	8.477232e+000
3.026703634610595e-003	-8.931855e+000	8.477758e+000
3.032154114207662e-003	-8.713836e+000	8.477765e+000
3.243091614207655e-003	-2.763356e-001	8.474689e+000
3.245562398653118e-003	-1.775042e-001	8.478349e+000
3.248033183098582e-003	-7.867283e-002	8.477593e+000
3.250503967544045e-003	2.015855e-002	8.472421e+000
3.252974751989509e-003	1.189899e-001	8.462834e+000
3.255445536434972e-003	2.178213e-001	8.448831e+000
3.257916320880436e-003	3.166527e-001	8.430412e+000
3.260387105325899e-003	4.154840e-001	8.407578e+000
3.261199714800858e-003	4.479884e-001	8.331070e+000
3.261642526280108e-003	4.657009e-001	8.080734e+000
3.261920220231220e-003	4.768086e-001	7.615100e+000
3.262221671344852e-003	4.888667e-001	6.681337e+000
3.262669903794663e-003	5.067960e-001	4.546204e+000
3.263089680860767e-003	5.235870e-001	1.524451e+000
3.263564478146921e-003	5.425790e-001	-3.142118e+000
3.263854111440251e-003	5.541643e-001	-5.961847e+000
3.264209116796497e-003	5.683645e-001	-8.319629e+000
3.264253126131695e-003	5.701249e-001	-8.426947e+000
3.265310767626434e-003	6.124305e-001	-8.448105e+000
3.266368409121172e-003	6.547362e-001	-8.464572e+000
3.267426050615911e-003	6.970419e-001	-8.476348e+000
3.268483692110650e-003	7.393476e-001	-8.483432e+000
3.269541333605389e-003	7.816532e-001	-8.485825e+000
3.270598975100127e-003	8.239589e-001	-8.483527e+000
3.271656616594866e-003	8.662645e-001	-8.476537e+000
3.500167777079335e-003	9.993289e+000	-8.476714e+000
3.743564822763029e-003	2.574073e-001	-8.474587e+000
3.746033337992636e-003	1.586667e-001	-8.479910e+000
3.748501853222242e-003	5.992606e-002	-8.479705e+000
3.750970368451849e-003	-3.881454e-002	-8.473975e+000
3.753438883681455e-003	-1.375552e-001	-8.462718e+000
3.755907398911062e-003	-2.362958e-001	-8.445935e+000
3.758375914140668e-003	-3.350364e-001	-8.423625e+000
3.760844429370274e-003	-4.337770e-001	-8.395789e+000
3.761184269714328e-003	-4.473706e-001	-8.377337e+000
3.761448149224455e-003	-4.579258e-001	-8.324361e+000
3.761643382314541e-003	-4.657351e-001	-8.172955e+000
3.761852839240087e-003	-4.741134e-001	-7.826141e+000
3.762062924571162e-003	-4.825168e-001	-7.292716e+000
3.762384775986768e-003	-4.953908e-001	-6.110226e+000
3.762783049451907e-003	-5.113218e-001	-3.940066e+000
3.763219458893584e-003	-5.287781e-001	-4.871025e-001
3.763642735321501e-003	-5.457092e-001	3.914090e+000
3.763931091662036e-003	-5.572435e-001	6.670561e+000
3.764255836210686e-003	-5.702332e-001	8.366807e+000
3.764299686358827e-003	-5.719873e-001	8.430757e+000
3.765368438481377e-003	-6.147374e-001	8.450206e+000
3.766437190603926e-003	-6.574874e-001	8.465356e+000
3.767505942726475e-003	-7.002375e-001	8.476205e+000
3.768574694849025e-003	-7.429876e-001	8.482755e+000
3.769643446971574e-003	-7.857377e-001	8.485004e+000
3.770712199094124e-003	-8.284878e-001	8.482954e+000
3.771780951216673e-003	-8.712379e-001	8.476604e+000
3.965405994174242e-003	-8.616240e+000	8.477746e+000
3.971265369174242e-003	-8.850615e+000	8.477763e+000
3.977124744174243e-003	-9.084990e+000	8.477657e+000
3.982984119174243e-003	-9.319365e+000	8.476751e+000
3.987751904210957e-003	-9.510076e+000	8.474243e+000
3.992722937660175e-003	-9.708918e+000	8.469502e+000
3.995617843327233e-003	-9.824714e+000	8.465788e+000
4.000000005000006e-003	-1.000000e+001	8.458121e+000
4.001030392206929e-003	-9.958784e+000	8.458039e+000
4.002060779413853e-003	-9.917569e+000	8.458329e+000
4.003091166620777e-003	-9.876353e+000	8.458991e+000
4.004121553827699e-003	-9.835138e+000	8.460024e+000
4.005151941034623e-003	-9.793922e+000	8.461430e+000
4.006182328241546e-003	-9.752707e+000	8.463207e+000
4.007212715448470e-003	-9.711492e+000	8.465356e+000
4.010442343902648e-003	-9.582307e+000	8.469468e+000
4.016301718902648e-003	-9.347932e+000	8.474816e+000
4.021218469905360e-003	-9.151261e+000	8.477142e+000
4.026324925159252e-003	-8.947003e+000	8.477747e+000
4.032184300159252e-003	-8.712628e+000	8.477766e+000
4.243121800159260e-003	-2.751282e-001	8.474665e+000
4.260241817241882e-003	4.096725e-001	8.411906e+000
4.261101789531115e-003	4.440714e-001	8.369269e+000
4.261554829869067e-003	4.621930e-001	8.190144e+000
4.261851966222121e-003	4.740784e-001	7.778194e+000
4.262140944932005e-003	4.856376e-001	6.978843e+000
4.262593982565955e-003	5.037591e-001	4.994306e+000
4.263027008100532e-003	5.210801e-001	2.065558e+000
4.263518287565486e-003	5.407313e-001	-2.569083e+000
4.263802304460751e-003	5.520920e-001	-5.441061e+000
4.264149663180086e-003	5.659863e-001	-8.264380e+000
4.264195461711146e-003	5.678183e-001	-8.419591e+000
4.265236656320656e-003	6.094661e-001	-8.444176e+000
4.266277850930166e-003	6.511138e-001	-8.463277e+000
4.267319045539677e-003	6.927616e-001	-8.476893e+000
4.268360240149188e-003	7.344094e-001	-8.485025e+000
4.269401434758698e-003	7.760572e-001	-8.487672e+000
4.270442629368208e-003	8.177050e-001	-8.484835e+000
4.271483823977718e-003	8.593528e-001	-8.476513e+000
4.500167778152098e-003	9.993289e+000	-8.476714e+000
4.743564827189985e-003	2.574072e-001	-8.474587e+000
4.746033342113641e-003	1.586666e-001	-8.479910e+000
4.748501857037298e-003	5.992597e-002	-8.479705e+000
4.750970371960955e-003	-3.881463e-002	-8.473975e+000
4.753438886884613e-003	-1.375552e-001	-8.462718e+000
4.755907401808270e-003	-2.362958e-001	-8.445935e+000
4.758375916731927e-003	-3.350364e-001	-8.423625e+000
4.760844431655584e-003	-4.337770e-001	-8.395789e+000
4.761184272176372e-003	-4.473706e-001	-8.377336e+000
4.761448151361834e-003	-4.579258e-001	-8.324361e+000
4.761643384310522e-003	-4.657351e-001	-8.172954e+000
4.761852842258556e-003	-4.741135e-001	-7.826137e+000
4.762062928487785e-003	-4.825169e-001	-7.292707e+000
4.762384779869355e-003	-4.953910e-001	-6.110214e+000
4.762783052821062e-003	-5.113219e-001	-3.940050e+000
4.763219462840020e-003	-5.287783e-001	-4.870751e-001
4.763642738334955e-003	-5.457093e-001	3.914114e+000
4.763931095081025e-003	-5.572436e-001	6.670584e+000
4.764255839215867e-003	-5.702333e-001	8.366809e+000
4.764299689367204e-003	-5.719873e-001	8.430757e+000
4.765368442188154e-003	-6.147375e-001	8.450206e+000
4.766437195009104e-003	-6.574876e-001	8.465356e+000
4.767505947830054e-003	-7.002377e-001	8.476205e+000
4.768574700651005e-003	-7.429878e-001	8.482755e+000
4.769643453471955e-003	-7.857379e-001	8.485004e+000
4.770712206292905e-003	-8.284880e-001	8.482954e+000
4.771780959113855e-003	-8.712381e-001	8.476604e+000
4.965406010254003e-003	-8.616241e+000	8.477746e+000
4.971265385254003e-003	-8.850616e+000	8.477763e+000
4.977124760254003e-003	-9.084991e+000	8.477657e+000
4.982984135254004e-003	-9.319366e+000	8.476751e+000
4.987751925976448e-003	-9.510077e+000	8.474243e+000
4.992722962872427e-003	-9.708919e+000	8.469502e+000
4.995617871727355e-003	-9.824715e+000	8.465788e+000
5.000000006000008e-003	-1.000000e+001	8.458121e+000
5.001059927438579e-003	-9.957603e+000	8.458077e+000
5.002119848877150e-003	-9.915206e+000	8.458406e+000
5.003179770315721e-003	-9.872810e+000	8.459108e+000
5.004239691754292e-003	-9.830413e+000	8.460184e+000
5.005299613192862e-003	-9.788016e+000	8.461633e+000
5.006359534631434e-003	-9.745619e+000	8.463455e+000
5.007419456070005e-003	-9.703222e+000	8.465651e+000
5.010717228971428e-003	-9.571311e+000	8.469789e+000
5.016576603971428e-003	-9.336936e+000	8.474994e+000
5.021534806418219e-003	-9.138608e+000	8.477218e+000
5.026640042560853e-003	-8.934399e+000	8.477757e+000
5.032151112631470e-003	-8.713956e+000	8.477765e+000
5.243088612631478e-003	-2.764557e-001	8.474692e+000
5.245559312398270e-003	-1.776277e-001	8.478401e+000
5.248030012165062e-003	-7.879974e-002	8.477672e+000
5.250500711931855e-003	2.002825e-002	8.472504e+000
5.252971411698646e-003	1.188562e-001	8.462897e+000
5.255442111465438e-003	2.176842e-001	8.448852e+000
5.257912811232231e-003	3.165122e-001	8.430368e+000
5.260383510999023e-003	4.153402e-001	8.407446e+000
5.261222770119235e-003	4.489106e-001	8.309599e+000
5.261674408282460e-003	4.669761e-001	8.011147e+000
5.261970974648499e-003	4.788387e-001	7.464279e+000
5.262289175589093e-003	4.915668e-001	6.404745e+000
5.262729695077725e-003	5.091876e-001	4.147703e+000
5.263160684763911e-003	5.264271e-001	8.677398e-001
