time	V(vin)	V(vout)
0.000000000000000e+000	-1.000000e+001	8.454711e+000
9.789945589469805e-007	-9.960840e+000	8.455753e+000
1.957989117893961e-006	-9.921680e+000	8.456925e+000
2.936983676840942e-006	-9.882521e+000	8.458225e+000
3.915978235787922e-006	-9.843361e+000	8.459655e+000
4.894972794734903e-006	-9.804201e+000	8.461215e+000
5.873967353681883e-006	-9.765041e+000	8.462903e+000
6.852961912628862e-006	-9.725882e+000	8.464721e+000
1.079297078268894e-005	-9.568281e+000	8.469793e+000
1.665234578268894e-005	-9.333906e+000	8.475037e+000
2.165245690316951e-005	-9.133902e+000	8.477241e+000
2.679070950277910e-005	-8.928371e+000	8.477761e+000
3.216227638365881e-005	-8.713509e+000	8.477765e+000
2.764695150974841e-004	1.058781e+000	8.474101e+000
2.788132201686262e-004	1.152529e+000	8.477945e+000
2.811569252397682e-004	1.246277e+000	8.476879e+000
2.835006303109103e-004	1.340025e+000	8.470903e+000
2.858443353820524e-004	1.433773e+000	8.460018e+000
2.881880404531944e-004	1.527522e+000	8.444223e+000
2.905317455243365e-004	1.621270e+000	8.423518e+000
2.928754505954786e-004	1.715018e+000	8.397904e+000
2.934002118566363e-004	1.736008e+000	8.365282e+000
2.935409078183764e-004	1.741636e+000	8.328861e+000
2.936149022542289e-004	1.744596e+000	8.274199e+000
2.936807982091846e-004	1.747232e+000	8.165794e+000
2.937584015508180e-004	1.750336e+000	7.945125e+000
2.938989645101144e-004	1.755959e+000	7.270361e+000
2.940886484986986e-004	1.763546e+000	5.880225e+000
2.941708185542626e-004	1.766833e+000	5.049865e+000
2.942437913582392e-004	1.769752e+000	4.165677e+000
2.944969761520504e-004	1.779879e+000	9.287972e-001
2.946743290636769e-004	1.786973e+000	-1.352427e+000
2.950290348869299e-004	1.801161e+000	-5.275874e+000
2.954397632390842e-004	1.817590e+000	-8.399732e+000
2.954969790280123e-004	1.819879e+000	-8.429225e+000
2.967600239020758e-004	1.870401e+000	-8.450323e+000
2.980230687761393e-004	1.920923e+000	-8.466655e+000
2.992861136502028e-004	1.971445e+000	-8.478220e+000
3.005491585242662e-004	2.021966e+000	-8.485018e+000
3.018122033983297e-004	2.072488e+000	-8.487049e+000
3.030752482723932e-004	2.123010e+000	-8.484314e+000
3.043382931464567e-004	2.173532e+000	-8.476811e+000
5.001677740793296e-004	9.993289e+000	-8.476878e+000
7.744092951170957e-004	-9.763717e-001	-8.475470e+000
7.877980585155367e-004	-1.511922e+000	-8.443182e+000
7.931895885789409e-004	-1.727583e+000	-8.382342e+000
7.934326837094631e-004	-1.737307e+000	-8.353132e+000
7.935574353852584e-004	-1.742297e+000	-8.305060e+000
7.936376925873828e-004	-1.745508e+000	-8.212205e+000
7.937179889310851e-004	-1.748719e+000	-8.032722e+000
7.938015448454742e-004	-1.752062e+000	-7.719182e+000
7.939686566742523e-004	-1.758746e+000	-6.750493e+000
7.940847355861122e-004	-1.763389e+000	-5.787081e+000
7.941552248033075e-004	-1.766209e+000	-5.023334e+000
7.942276717877815e-004	-1.769107e+000	-4.128905e+000
7.944692669486920e-004	-1.778771e+000	-1.004270e+000
7.946417056312676e-004	-1.785668e+000	1.232030e+000
7.949865829964190e-004	-1.799463e+000	5.094365e+000
7.954042704968238e-004	-1.816171e+000	8.396648e+000
7.954290903715641e-004	-1.817164e+000	8.425246e+000
7.963985882450310e-004	-1.855943e+000	8.446865e+000
7.973680861184977e-004	-1.894723e+000	8.463726e+000
7.983375839919645e-004	-1.933503e+000	8.475828e+000
7.993070818654312e-004	-1.972283e+000	8.483172e+000
8.002765797388980e-004	-2.011063e+000	8.485758e+000
8.012460776123647e-004	-2.049843e+000	8.483586e+000
8.022155754858315e-004	-2.088623e+000	8.476656e+000
9.645392135274212e-004	-8.581569e+000	8.477742e+000
9.703985885274212e-004	-8.815944e+000	8.477760e+000
9.762579635274212e-004	-9.050319e+000	8.477711e+000
9.821173385274212e-004	-9.284694e+000	8.477057e+000
9.867140664826593e-004	-9.468562e+000	8.475017e+000
9.916251960135878e-004	-9.665008e+000	8.470773e+000
9.949691400271757e-004	-9.798765e+000	8.466721e+000
9.956878345947220e-004	-9.827513e+000	8.465698e+000
9.964065291622683e-004	-9.856261e+000	8.464607e+000
9.971252237298146e-004	-9.885009e+000	8.463448e+000
9.978439182973611e-004	-9.913757e+000	8.462219e+000
9.985626128649074e-004	-9.942504e+000	8.460922e+000
9.992813074324537e-004	-9.971252e+000	8.459557e+000
1.000000002000000e-003	-1.000000e+001	8.458122e+000
1.001068216304460e-003	-9.957271e+000	8.458081e+000
1.002136430608920e-003	-9.914542e+000	8.458415e+000
1.003204644913380e-003	-9.871814e+000	8.459126e+000
1.004272859217840e-003	-9.829085e+000	8.460213e+000
1.005341073522300e-003	-9.786357e+000	8.461676e+000
1.006409287826760e-003	-9.743628e+000	8.463515e+000
1.007477502131220e-003	-9.700900e+000	8.465730e+000
1.010829831743991e-003	-9.566807e+000	8.469914e+000
1.016689206743991e-003	-9.332432e+000	8.475071e+000
1.021618408845598e-003	-9.135263e+000	8.477243e+000
1.026686009426549e-003	-8.932560e+000	8.477759e+000
1.032031139520288e-003	-8.718755e+000	8.477765e+000
1.276359638523034e-003	1.054385e+000	8.474174e+000
1.278732067349610e-003	1.149283e+000	8.478655e+000
1.281104496176187e-003	1.244180e+000	8.477846e+000
1.283476925002763e-003	1.339077e+000	8.471749e+000
1.285849353829340e-003	1.433974e+000	8.460364e+000
1.288221782655916e-003	1.528871e+000	8.443690e+000
1.290594211482492e-003	1.623768e+000	8.421727e+000
1.292966640309069e-003	1.718665e+000	8.394475e+000
1.293422199521782e-003	1.736888e+000	8.362223e+000
1.293551241628117e-003	1.742050e+000	8.324780e+000
1.293619111058671e-003	1.744764e+000	8.270342e+000
1.293684274026239e-003	1.747371e+000	8.159270e+000
1.293759020692155e-003	1.750361e+000	7.941368e+000
1.293908514023987e-003	1.756341e+000	7.193823e+000
1.294112261642190e-003	1.764490e+000	5.631421e+000
1.294194483837002e-003	1.767779e+000	4.767495e+000
1.294275674965651e-003	1.771027e+000	3.761751e+000
1.294547946794914e-003	1.781918e+000	2.721550e-001
1.294744278606181e-003	1.789771e+000	-2.255203e+000
1.295114204958963e-003	1.804568e+000	-6.128386e+000
1.295511986598742e-003	1.820479e+000	-8.340530e+000
1.295572378111854e-003	1.822895e+000	-8.435214e+000
1.296803747423560e-003	1.872150e+000	-8.453274e+000
1.298035116735266e-003	1.921405e+000	-8.467294e+000
1.299266486046972e-003	1.970659e+000	-8.477275e+000
1.300497855358678e-003	2.019914e+000	-8.483217e+000
1.301729224670384e-003	2.069169e+000	-8.485119e+000
1.302960593982089e-003	2.118424e+000	-8.482982e+000
1.304191963293795e-003	2.167678e+000	-8.476806e+000
1.500167775079332e-003	9.993289e+000	-8.476878e+000
1.774409296117098e-003	-9.763717e-001	-8.475470e+000
1.787798059850789e-003	-1.511922e+000	-8.443182e+000
1.793189590408969e-003	-1.727584e+000	-8.382342e+000
1.793432683848012e-003	-1.737307e+000	-8.353132e+000
1.793557435390731e-003	-1.742297e+000	-8.305061e+000
1.793637692412408e-003	-1.745508e+000	-8.212207e+000
1.793717987997911e-003	-1.748719e+000	-8.032727e+000
1.793801543348530e-003	-1.752062e+000	-7.719193e+000
1.793968654049769e-003	-1.758746e+000	-6.750518e+000
1.794084735357552e-003	-1.763389e+000	-5.787094e+000
1.794155224629235e-003	-1.766209e+000	-5.023349e+000
1.794227671056601e-003	-1.769107e+000	-4.128928e+000
1.794469265594136e-003	-1.778770e+000	-1.004301e+000
1.794641704646320e-003	-1.785668e+000	1.232004e+000
1.794986582750689e-003	-1.799463e+000	5.094350e+000
1.795404270711275e-003	-1.816171e+000	8.396648e+000
1.795429090653496e-003	-1.817163e+000	8.425246e+000
1.796398589022875e-003	-1.855943e+000	8.446865e+000
1.797368087392253e-003	-1.894723e+000	8.463726e+000
1.798337585761632e-003	-1.933503e+000	8.475828e+000
1.799307084131010e-003	-1.972283e+000	8.483172e+000
1.800276582500388e-003	-2.011063e+000	8.485758e+000
1.801246080869767e-003	-2.049843e+000	8.483586e+000
1.802215579239145e-003	-2.088623e+000	8.476656e+000
1.964539226960692e-003	-8.581569e+000	8.477742e+000
1.970398601960692e-003	-8.815944e+000	8.477760e+000
1.976257976960692e-003	-9.050319e+000	8.477711e+000
1.982117351960692e-003	-9.284694e+000	8.477057e+000
1.986714080337000e-003	-9.468563e+000	8.475017e+000
1.991625208964367e-003	-9.665009e+000	8.470773e+000
1.994969164928731e-003	-9.798766e+000	8.466721e+000
1.995687856081769e-003	-9.827514e+000	8.465698e+000
1.996406547234808e-003	-9.856262e+000	8.464607e+000
1.997125238387847e-003	-9.885010e+000	8.463448e+000
1.997843929540886e-003	-9.913757e+000	8.462219e+000
1.998562620693924e-003	-9.942505e+000	8.460922e+000
1.999281311846964e-003	-9.971253e+000	8.459557e+000
2.000000003000002e-003	-1.000000e+001	8.458122e+000
2.001068042657247e-003	-9.957278e+000	8.458080e+000
2.002136082314492e-003	-9.914557e+000	8.458415e+000
2.003204121971737e-003	-9.871835e+000	8.459125e+000
2.004272161628982e-003	-9.829114e+000	8.460212e+000
2.005340201286227e-003	-9.786392e+000	8.461675e+000
2.006408240943473e-003	-9.743670e+000	8.463514e+000
2.007476280600717e-003	-9.700949e+000	8.465729e+000
2.010828192383591e-003	-9.566873e+000	8.469913e+000
2.016687567383591e-003	-9.332498e+000	8.475070e+000
2.021616366919443e-003	-9.135345e+000	8.477243e+000
2.026683830807825e-003	-8.932647e+000	8.477759e+000
2.032030728735679e-003	-8.718771e+000	8.477765e+000
2.276359310846308e-003	1.054372e+000	8.474174e+000
2.278731761827263e-003	1.149270e+000	8.478654e+000
2.281104212808218e-003	1.244168e+000	8.477845e+000
2.283476663789173e-003	1.339066e+000	8.471748e+000
2.285849114770128e-003	1.433964e+000	8.460363e+000
2.288221565751083e-003	1.528862e+000	8.443690e+000
2.290594016732038e-003	1.623761e+000	8.421730e+000
2.292966467712993e-003	1.718659e+000	8.394481e+000
2.293422197310321e-003	1.736888e+000	8.362223e+000
2.293551248705584e-003	1.742050e+000	8.324774e+000
2.293619121917942e-003	1.744765e+000	8.270327e+000
2.293684288530125e-003	1.747371e+000	8.159238e+000
2.293759035947496e-003	1.750361e+000	7.941319e+000
2.293908530782238e-003	1.756341e+000	7.193689e+000
2.294112321365620e-003	1.764493e+000	5.630787e+000
2.294194545778224e-003	1.767782e+000	4.766765e+000
2.294275766534318e-003	1.771031e+000	3.760607e+000
2.294548087453642e-003	1.781923e+000	2.703654e-001
2.294744570727218e-003	1.789783e+000	-2.258946e+000
2.295114193258685e-003	1.804568e+000	-6.128683e+000
2.295511951549875e-003	1.820478e+000	-8.340530e+000
2.295572328983788e-003	1.822893e+000	-8.435210e+000
2.296803599798199e-003	1.872144e+000	-8.453271e+000
2.298034870612609e-003	1.921395e+000	-8.467292e+000
2.299266141427020e-003	1.970645e+000	-8.477274e+000
2.300497412241431e-003	2.019896e+000	-8.483216e+000
2.301728683055842e-003	2.069147e+000	-8.485119e+000
2.302959953870253e-003	2.118398e+000	-8.482982e+000
2.304191224684664e-003	2.167649e+000	-8.476806e+000
2.500167776079333e-003	9.993289e+000	-8.476878e+000
2.774409297117090e-003	-9.763717e-001	-8.475470e+000
2.787798060851061e-003	-1.511922e+000	-8.443182e+000
2.793189591409659e-003	-1.727584e+000	-8.382342e+000
2.793432684847299e-003	-1.737307e+000	-8.353132e+000
2.793557436389906e-003	-1.742297e+000	-8.305061e+000
2.793637693411434e-003	-1.745508e+000	-8.212207e+000
2.793717988996306e-003	-1.748719e+000	-8.032727e+000
2.793801544346457e-003	-1.752062e+000	-7.719193e+000
2.793968655046758e-003	-1.758746e+000	-6.750518e+000
2.794084736356534e-003	-1.763389e+000	-5.787094e+000
2.794155225628262e-003	-1.766209e+000	-5.023349e+000
2.794227672055164e-003	-1.769107e+000	-4.128928e+000
2.794469266592181e-003	-1.778770e+000	-1.004301e+000
2.794641705644673e-003	-1.785668e+000	1.232004e+000
2.794986583749656e-003	-1.799463e+000	5.094350e+000
2.795404271710625e-003	-1.816171e+000	8.396648e+000
2.795429091652903e-003	-1.817163e+000	8.425246e+000
2.796398590022693e-003	-1.855943e+000	8.446865e+000
2.797368088392484e-003	-1.894723e+000	8.463726e+000
2.798337586762275e-003	-1.933503e+000	8.475828e+000
2.799307085132066e-003	-1.972283e+000	8.483172e+000
2.800276583501857e-003	-2.011063e+000	8.485758e+000
2.801246081871647e-003	-2.049843e+000	8.483586e+000
2.802215580241438e-003	-2.088623e+000	8.476656e+000
2.964539227971028e-003	-8.581569e+000	8.477742e+000
2.970398602971028e-003	-8.815944e+000	8.477760e+000
2.976257977971028e-003	-9.050319e+000	8.477711e+000
2.982117352971028e-003	-9.284694e+000	8.477057e+000
2.986714081347687e-003	-9.468563e+000	8.475017e+000
2.991625209974304e-003	-9.665009e+000	8.470773e+000
2.994969165948603e-003	-9.798766e+000	8.466721e+000
2.995687857098803e-003	-9.827514e+000	8.465698e+000
2.996406548249003e-003	-9.856262e+000	8.464607e+000
2.997125239399203e-003	-9.885010e+000	8.463448e+000
2.997843930549403e-003	-9.913757e+000	8.462219e+000
2.998562621699603e-003	-9.942505e+000	8.460922e+000
2.999281312849804e-003	-9.971253e+000	8.459557e+000
3.000000004000004e-003	-1.000000e+001	8.458122e+000
3.001068043512691e-003	-9.957278e+000	8.458080e+000
3.002136083025378e-003	-9.914557e+000	8.458415e+000
3.003204122538065e-003	-9.871835e+000	8.459125e+000
3.004272162050752e-003	-9.829114e+000	8.460212e+000
3.005340201563440e-003	-9.786392e+000	8.461675e+000
3.006408241076126e-003	-9.743670e+000	8.463514e+000
3.007476280588814e-003	-9.700949e+000	8.465729e+000
3.010828192025845e-003	-9.566873e+000	8.469913e+000
3.016687567025844e-003	-9.332498e+000	8.475070e+000
3.021616366228969e-003	-9.135345e+000	8.477243e+000
3.026683830004685e-003	-8.932647e+000	8.477759e+000
3.032030729397063e-003	-8.718771e+000	8.477765e+000
3.276359311575996e-003	1.054372e+000	8.474174e+000
3.278731762575188e-003	1.149270e+000	8.478654e+000
3.281104213574379e-003	1.244168e+000	8.477845e+000
3.283476664573570e-003	1.339066e+000	8.471748e+000
3.285849115572761e-003	1.433964e+000	8.460363e+000
3.288221566571952e-003	1.528862e+000	8.443690e+000
3.290594017571143e-003	1.623761e+000	8.421730e+000
3.292966468570335e-003	1.718659e+000	8.394481e+000
3.293422198307670e-003	1.736888e+000	8.362223e+000
3.293551249710575e-003	1.742050e+000	8.324774e+000
3.293619122926044e-003	1.744765e+000	8.270327e+000
3.293684289541222e-003	1.747371e+000	8.159238e+000
3.293759036959213e-003	1.750361e+000	7.941319e+000
3.293908531795194e-003	1.756341e+000	7.193689e+000
3.294112322413905e-003	1.764493e+000	5.630786e+000
3.294194546828336e-003	1.767782e+000	4.766764e+000
3.294275767608813e-003	1.771031e+000	3.760607e+000
3.294548088568662e-003	1.781923e+000	2.703640e-001
3.294744571966941e-003	1.789783e+000	-2.258950e+000
3.295114194249756e-003	1.804568e+000	-6.128683e+000
3.295511952521720e-003	1.820478e+000	-8.340530e+000
3.295572329944032e-003	1.822893e+000	-8.435210e+000
3.296803600678030e-003	1.872144e+000	-8.453271e+000
3.298034871412028e-003	1.921395e+000	-8.467292e+000
3.299266142146026e-003	1.970645e+000	-8.477274e+000
3.300497412880024e-003	2.019896e+000	-8.483216e+000
3.301728683614021e-003	2.069147e+000	-8.485119e+000
3.302959954348019e-003	2.118398e+000	-8.482982e+000
3.304191225082017e-003	2.167649e+000	-8.476806e+000
3.500167777079335e-003	9.993289e+000	-8.476878e+000
3.557612423117099e-003	7.695503e+000	-8.476878e+000
3.589179448912694e-003	6.432822e+000	-8.477614e+000
3.620746474708288e-003	5.170141e+000	-8.477889e+000
3.652313500503882e-003	3.907460e+000	-8.477704e+000
3.683880526299476e-003	2.644779e+000	-8.477057e+000
3.715447552095070e-003	1.382098e+000	-8.475950e+000
3.747014577890664e-003	1.194171e-001	-8.474381e+000
3.778581603686258e-003	-1.143264e+000	-8.472352e+000
3.780668459218173e-003	-1.226738e+000	-8.473069e+000
3.782755314750089e-003	-1.310212e+000	-8.469260e+000
3.784842170282003e-003	-1.393687e+000	-8.460927e+000
3.786929025813919e-003	-1.477161e+000	-8.448068e+000
3.789015881345834e-003	-1.560635e+000	-8.430684e+000
3.791102736877749e-003	-1.644109e+000	-8.408776e+000
3.793189592409664e-003	-1.727584e+000	-8.382342e+000
3.793432685847298e-003	-1.737307e+000	-8.353132e+000
3.793557437389906e-003	-1.742297e+000	-8.305061e+000
3.793637694411432e-003	-1.745508e+000	-8.212207e+000
3.793717989996303e-003	-1.748719e+000	-8.032727e+000
3.793801545346452e-003	-1.752062e+000	-7.719193e+000
3.793968656046750e-003	-1.758746e+000	-6.750518e+000
3.794084737356532e-003	-1.763389e+000	-5.787094e+000
3.794155226628260e-003	-1.766209e+000	-5.023349e+000
3.794227673055161e-003	-1.769107e+000	-4.128928e+000
3.794469267592177e-003	-1.778770e+000	-1.004301e+000
3.794641706644669e-003	-1.785668e+000	1.232004e+000
3.794986584749654e-003	-1.799463e+000	5.094350e+000
3.795404272710625e-003	-1.816171e+000	8.396648e+000
3.795429092652902e-003	-1.817163e+000	8.425246e+000
3.796398591022694e-003	-1.855943e+000	8.446865e+000
3.797368089392486e-003	-1.894723e+000	8.463726e+000
3.798337587762278e-003	-1.933503e+000	8.475828e+000
3.799307086132070e-003	-1.972283e+000	8.483172e+000
3.800276584501862e-003	-2.011063e+000	8.485758e+000
3.801246082871654e-003	-2.049843e+000	8.483586e+000
3.802215581241446e-003	-2.088623e+000	8.476656e+000
3.964539228971066e-003	-8.581569e+000	8.477742e+000
3.970398603971066e-003	-8.815944e+000	8.477760e+000
3.976257978971066e-003	-9.050319e+000	8.477711e+000
3.982117353971066e-003	-9.284694e+000	8.477057e+000
3.986714082347726e-003	-9.468563e+000	8.475017e+000
3.991625210974339e-003	-9.665009e+000	8.470773e+000
3.994969166948673e-003	-9.798766e+000	8.466721e+000
3.995687858098863e-003	-9.827514e+000	8.465698e+000
3.996406549249053e-003	-9.856262e+000	8.464607e+000
3.997125240399244e-003	-9.885010e+000	8.463448e+000
3.997843931549435e-003	-9.913757e+000	8.462219e+000
3.998562622699625e-003	-9.942505e+000	8.460922e+000
3.999281313849815e-003	-9.971253e+000	8.459557e+000
4.000000005000006e-003	-1.000000e+001	8.458122e+000
4.001068044512196e-003	-9.957278e+000	8.458080e+000
4.002136084024385e-003	-9.914557e+000	8.458415e+000
4.003204123536576e-003	-9.871835e+000	8.459125e+000
4.004272163048766e-003	-9.829114e+000	8.460212e+000
4.005340202560956e-003	-9.786392e+000	8.461675e+000
4.006408242073146e-003	-9.743670e+000	8.463514e+000
4.007476281585336e-003	-9.700949e+000	8.465729e+000
4.010828193021180e-003	-9.566873e+000	8.469913e+000
4.016687568021180e-003	-9.332498e+000	8.475070e+000
4.021616367223161e-003	-9.135345e+000	8.477243e+000
4.026683830998489e-003	-8.932647e+000	8.477759e+000
4.032030730395902e-003	-8.718771e+000	8.477765e+000
4.276359312575083e-003	1.054372e+000	8.474174e+000
4.278731763574336e-003	1.149270e+000	8.478654e+000
4.281104214573589e-003	1.244168e+000	8.477845e+000
4.283476665572841e-003	1.339066e+000	8.471748e+000
4.285849116572094e-003	1.433964e+000	8.460363e+000
4.288221567571347e-003	1.528862e+000	8.443690e+000
4.290594018570600e-003	1.623761e+000	8.421730e+000
4.292966469569852e-003	1.718659e+000	8.394481e+000
4.293422199307655e-003	1.736888e+000	8.362223e+000
4.293551250710583e-003	1.742050e+000	8.324774e+000
4.293619123926064e-003	1.744765e+000	8.270327e+000
4.293684290541251e-003	1.747371e+000	8.159238e+000
4.293759037959245e-003	1.750361e+000	7.941319e+000
4.293908532795232e-003	1.756341e+000	7.193689e+000
4.294112323414030e-003	1.764493e+000	5.630786e+000
4.294194547828465e-003	1.767782e+000	4.766764e+000
4.294275768609004e-003	1.771031e+000	3.760607e+000
4.294548089568955e-003	1.781923e+000	2.703639e-001
4.294744572967550e-003	1.789783e+000	-2.258950e+000
4.295114195249735e-003	1.804568e+000	-6.128683e+000
4.295511953521651e-003	1.820478e+000	-8.340530e+000
4.295572330943934e-003	1.822893e+000	-8.435210e+000
4.296803601677728e-003	1.872144e+000	-8.453271e+000
4.298034872411522e-003	1.921395e+000	-8.467292e+000
4.299266143145316e-003	1.970645e+000	-8.477274e+000
4.300497413879110e-003	2.019896e+000	-8.483216e+000
4.301728684612904e-003	2.069147e+000	-8.485119e+000
4.302959955346699e-003	2.118398e+000	-8.482982e+000
4.304191226080493e-003	2.167649e+000	-8.476806e+000
4.500167778152098e-003	9.993289e+000	-8.476878e+000
4.774409303773727e-003	-9.763719e-001	-8.475470e+000
4.787798069331790e-003	-1.511922e+000	-8.443182e+000
