time	V(vin)	V(vout)
0.000000000000000e+000	-1.000000e+000	8.476793e+000
1.000000000000000e-006	-1.000000e+000	8.476793e+000
2.000000000000000e-006	1.000000e+000	8.476822e+000
5.714251600747389e-004	1.000000e+000	8.476845e+000
1.140850320149478e-003	1.000000e+000	8.476111e+000
1.710275480224217e-003	1.000000e+000	8.474621e+000
2.279700640298955e-003	1.000000e+000	8.472375e+000
2.849125800373694e-003	1.000000e+000	8.469372e+000
3.418550960448433e-003	1.000000e+000	8.465613e+000
3.987976120523171e-003	1.000000e+000	8.461098e+000
5.164097844056086e-003	1.000000e+000	8.447278e+000
6.608831867880870e-003	1.000000e+000	8.415913e+000
7.649352541295167e-003	1.000000e+000	8.366274e+000
8.739720303422871e-003	1.000000e+000	8.279198e+000
9.471236331413490e-003	1.000000e+000	8.208650e+000
1.019704263456911e-002	1.000000e+000	8.136147e+000
1.000020000000000e-001	1.000000e+000	-8.443015e-001
1.000020062749116e-001	9.874502e-001	-8.444797e-001
1.000020188247349e-001	9.623505e-001	-8.448030e-001
1.000020439243814e-001	9.121512e-001	-8.453271e-001
1.000020625632559e-001	8.748735e-001	-8.455878e-001
1.000020862378183e-001	8.275244e-001	-8.457515e-001
1.000021121047722e-001	7.757905e-001	-8.458036e-001
1.000022259635951e-001	5.480728e-001	-8.457065e-001
1.000030000000000e-001	-1.000000e+000	-8.456962e-001
1.000030139361964e-001	-1.000000e+000	-8.453090e-001
1.000030325177915e-001	-1.000000e+000	-8.448675e-001
1.000030476938839e-001	-1.000000e+000	-8.445951e-001
1.000030707936225e-001	-1.000000e+000	-8.443367e-001
1.000030922483555e-001	-1.000000e+000	-8.442289e-001
1.000031326923651e-001	-1.000000e+000	-8.442035e-001
1.000031985299229e-001	-1.000000e+000	-8.442743e-001
1.000032401588725e-001	-1.000000e+000	-8.442913e-001
1.877931985403831e-001	-1.000000e+000	7.934593e+000
1.893556985403831e-001	-1.000000e+000	8.090816e+000
1.909181985403831e-001	-1.000000e+000	8.242393e+000
1.924806985403831e-001	-1.000000e+000	8.368834e+000
1.935251153551906e-001	-1.000000e+000	8.418199e+000
1.946006080890168e-001	-1.000000e+000	8.439470e+000
1.957212052939378e-001	-1.000000e+000	8.450828e+000
1.970434896197586e-001	-1.000000e+000	8.458970e+000
1.974659911026503e-001	-1.000000e+000	8.460991e+000
1.978884925855419e-001	-1.000000e+000	8.462815e+000
1.983109940684335e-001	-1.000000e+000	8.464443e+000
1.987334955513251e-001	-1.000000e+000	8.465874e+000
1.991559970342168e-001	-1.000000e+000	8.467109e+000
1.995784985171084e-001	-1.000000e+000	8.468147e+000
2.000010000000000e-001	-1.000000e+000	8.468988e+000
2.000020000000000e-001	1.000000e+000	8.469028e+000
2.005997000000108e-001	1.000000e+000	8.466285e+000
2.011974000000215e-001	1.000000e+000	8.460753e+000
2.017951000000323e-001	1.000000e+000	8.452432e+000
2.023928000000431e-001	1.000000e+000	8.441323e+000
2.029905000000539e-001	1.000000e+000	8.427426e+000
2.035882000000646e-001	1.000000e+000	8.410740e+000
2.041859000000754e-001	1.000000e+000	8.391266e+000
2.051184898321037e-001	1.000000e+000	8.333112e+000
2.062102198293192e-001	1.000000e+000	8.233825e+000
2.069091927053347e-001	1.000000e+000	8.164511e+000
2.092031234036170e-001	1.000000e+000	7.935129e+000
3.000020000000000e-001	1.000000e+000	-1.144706e+000
3.000020062658249e-001	9.874684e-001	-1.144884e+000
3.000020187974746e-001	9.624050e-001	-1.145208e+000
3.000020438607740e-001	9.122785e-001	-1.145732e+000
3.000020624798812e-001	8.750402e-001	-1.145992e+000
3.000020861511673e-001	8.276977e-001	-1.146157e+000
3.000021119953501e-001	7.760093e-001	-1.146209e+000
3.000022258591739e-001	5.482817e-001	-1.146112e+000
3.000030000000000e-001	-1.000000e+000	-1.146101e+000
3.000030139418493e-001	-1.000000e+000	-1.145714e+000
3.000030325309817e-001	-1.000000e+000	-1.145272e+000
3.000030477071318e-001	-1.000000e+000	-1.145000e+000
3.000030708104636e-001	-1.000000e+000	-1.144742e+000
3.000030922670628e-001	-1.000000e+000	-1.144634e+000
3.000031327314583e-001	-1.000000e+000	-1.144609e+000
3.000031986359851e-001	-1.000000e+000	-1.144680e+000
3.000032402690444e-001	-1.000000e+000	-1.144696e+000
3.909205244380793e-001	-1.000000e+000	7.946922e+000
3.924830244380794e-001	-1.000000e+000	8.103130e+000
3.940455244380794e-001	-1.000000e+000	8.253304e+000
3.956080244380794e-001	-1.000000e+000	8.374566e+000
3.967232217930503e-001	-1.000000e+000	8.422769e+000
3.978463175670109e-001	-1.000000e+000	8.442474e+000
3.981541293431523e-001	-1.000000e+000	8.445968e+000
3.984619411192936e-001	-1.000000e+000	8.449102e+000
3.987697528954349e-001	-1.000000e+000	8.451877e+000
3.990775646715761e-001	-1.000000e+000	8.454293e+000
3.993853764477174e-001	-1.000000e+000	8.456349e+000
3.996931882238587e-001	-1.000000e+000	8.458047e+000
4.000010000000001e-001	-1.000000e+000	8.459385e+000
4.000020000000000e-001	1.000000e+000	8.459443e+000
4.003764857142446e-001	1.000000e+000	8.456070e+000
4.007509714284890e-001	1.000000e+000	8.451324e+000
4.011254571427336e-001	1.000000e+000	8.445202e+000
4.014999428569780e-001	1.000000e+000	8.437707e+000
4.018744285712226e-001	1.000000e+000	8.428838e+000
4.022489142854671e-001	1.000000e+000	8.418594e+000
4.026233999997116e-001	1.000000e+000	8.406976e+000
4.035187934182635e-001	1.000000e+000	8.358300e+000
4.046273541558524e-001	1.000000e+000	8.264351e+000
4.052685595648273e-001	1.000000e+000	8.201836e+000
4.059649439379837e-001	1.000000e+000	8.132241e+000
5.000020000000001e-001	1.000000e+000	-1.271408e+000
5.000020062854934e-001	9.874290e-001	-1.271586e+000
5.000020188564802e-001	9.622871e-001	-1.271909e+000
5.000020439984537e-001	9.120031e-001	-1.272434e+000
5.000020626566165e-001	8.746868e-001	-1.272694e+000
5.000020863335039e-001	8.273330e-001	-1.272858e+000
5.000021122202424e-001	7.755595e-001	-1.272910e+000
5.000022260812368e-001	5.478376e-001	-1.272812e+000
5.000030000000000e-001	-1.000000e+000	-1.272802e+000
5.000030148494514e-001	-1.000000e+000	-1.272386e+000
5.000030318202531e-001	-1.000000e+000	-1.271986e+000
5.000030490698891e-001	-1.000000e+000	-1.271679e+000
5.000030706543140e-001	-1.000000e+000	-1.271442e+000
5.000030938302520e-001	-1.000000e+000	-1.271331e+000
5.000031321075273e-001	-1.000000e+000	-1.271309e+000
5.000031999112219e-001	-1.000000e+000	-1.271381e+000
5.000032415344715e-001	-1.000000e+000	-1.271397e+000
5.925527988827997e-001	-1.000000e+000	7.983448e+000
5.941152988827997e-001	-1.000000e+000	8.139546e+000
5.956777988827997e-001	-1.000000e+000	8.289134e+000
5.968506701219319e-001	-1.000000e+000	8.376839e+000
5.979560822215766e-001	-1.000000e+000	8.422667e+000
5.990219390965097e-001	-1.000000e+000	8.443130e+000
6.000010000000000e-001	-1.000000e+000	8.451946e+000
6.000020000000000e-001	1.000000e+000	8.452024e+000
6.001892400000054e-001	1.000000e+000	8.449835e+000
6.003764800000108e-001	1.000000e+000	8.447215e+000
6.005637200000161e-001	1.000000e+000	8.444164e+000
6.007509600000216e-001	1.000000e+000	8.440684e+000
6.009382000000270e-001	1.000000e+000	8.436774e+000
6.011254400000323e-001	1.000000e+000	8.432434e+000
6.013126800000377e-001	1.000000e+000	8.427664e+000
6.024507766926341e-001	1.000000e+000	8.380322e+000
6.033665989590594e-001	1.000000e+000	8.314839e+000
6.043010270806325e-001	1.000000e+000	8.227031e+000
6.051747983735843e-001	1.000000e+000	8.139977e+000
6.187215414630723e-001	1.000000e+000	6.785290e+000
6.322682845525602e-001	1.000000e+000	5.430611e+000
6.458150276420482e-001	1.000000e+000	4.075939e+000
6.593617707315362e-001	1.000000e+000	2.721274e+000
6.729085138210242e-001	1.000000e+000	1.366616e+000
6.864552569105122e-001	1.000000e+000	1.196467e-002
7.000020000000001e-001	1.000000e+000	-1.342680e+000
7.000020062290020e-001	9.875420e-001	-1.342857e+000
7.000020186870056e-001	9.626260e-001	-1.343179e+000
7.000020436030130e-001	9.127940e-001	-1.343702e+000
7.000020621615636e-001	8.756769e-001	-1.343964e+000
7.000020858272547e-001	8.283455e-001	-1.344129e+000
7.000021116146078e-001	7.767708e-001	-1.344182e+000
7.000022254572712e-001	5.490854e-001	-1.344085e+000
7.000030000000002e-001	-1.000000e+000	-1.344074e+000
7.000030139603267e-001	-1.000000e+000	-1.343687e+000
7.000030325740956e-001	-1.000000e+000	-1.343245e+000
7.000030477504441e-001	-1.000000e+000	-1.342972e+000
7.000030708655135e-001	-1.000000e+000	-1.342714e+000
7.000030923282284e-001	-1.000000e+000	-1.342607e+000
7.000031328594084e-001	-1.000000e+000	-1.342582e+000
7.000031989819958e-001	-1.000000e+000	-1.342653e+000
7.000032406286382e-001	-1.000000e+000	-1.342670e+000
7.378033263261845e-001	-1.000000e+000	2.437343e+000
7.940533263261853e-001	-1.000000e+000	8.062220e+000
7.956158263261853e-001	-1.000000e+000	8.216226e+000
7.971783263261854e-001	-1.000000e+000	8.352544e+000
7.981457079806821e-001	-1.000000e+000	8.408184e+000
7.982963589572300e-001	-1.000000e+000	8.414083e+000
7.984470099337778e-001	-1.000000e+000	8.419355e+000
7.985976609103257e-001	-1.000000e+000	8.424000e+000
7.987483118868735e-001	-1.000000e+000	8.428020e+000
7.988989628634213e-001	-1.000000e+000	8.431413e+000
7.990496138399692e-001	-1.000000e+000	8.434179e+000
7.992002648165171e-001	-1.000000e+000	8.436319e+000
8.000010000000001e-001	-1.000000e+000	8.445935e+000
8.000020000000000e-001	1.000000e+000	8.446033e+000
8.001892400000054e-001	1.000000e+000	8.443352e+000
8.003764800000107e-001	1.000000e+000	8.440097e+000
8.005637200000161e-001	1.000000e+000	8.436267e+000
8.007509600000216e-001	1.000000e+000	8.431864e+000
8.009382000000269e-001	1.000000e+000	8.426886e+000
8.011254400000323e-001	1.000000e+000	8.421335e+000
8.013126800000376e-001	1.000000e+000	8.415209e+000
8.021820220560733e-001	1.000000e+000	8.369884e+000
8.031950558838522e-001	1.000000e+000	8.288759e+000
8.038896784955818e-001	1.000000e+000	8.222113e+000
8.045882657376136e-001	1.000000e+000	8.152369e+000
8.182187992036688e-001	1.000000e+000	6.789304e+000
8.318493326697241e-001	1.000000e+000	5.426246e+000
8.454798661357792e-001	1.000000e+000	4.063195e+000
8.591103996018344e-001	1.000000e+000	2.700151e+000
8.727409330678897e-001	1.000000e+000	1.337114e+000
8.863714665339448e-001	1.000000e+000	-2.591563e-002
9.000020000000001e-001	1.000000e+000	-1.388938e+000
9.000020150938703e-001	9.698123e-001	-1.389354e+000
9.000020352190308e-001	9.295619e-001	-1.389821e+000
9.000020504237281e-001	8.991525e-001	-1.390080e+000
9.000020742321362e-001	8.515357e-001	-1.390324e+000
9.000020960964053e-001	8.078072e-001	-1.390417e+000
9.000021398249433e-001	7.203501e-001	-1.390424e+000
9.000022205129896e-001	5.589740e-001	-1.390346e+000
9.000030000000001e-001	-1.000000e+000	-1.390334e+000
9.000030141860633e-001	-1.000000e+000	-1.389941e+000
9.000030331008143e-001	-1.000000e+000	-1.389494e+000
9.000030482800338e-001	-1.000000e+000	-1.389224e+000
9.000030715369546e-001	-1.000000e+000	-1.388969e+000
9.000030930754326e-001	-1.000000e+000	-1.388864e+000
9.000031344423279e-001	-1.000000e+000	-1.388843e+000
9.000032031391264e-001	-1.000000e+000	-1.388915e+000
9.000032449672307e-001	-1.000000e+000	-1.388930e+000
9.942388996115589e-001	-1.000000e+000	8.034523e+000
9.958013996115589e-001	-1.000000e+000	8.189831e+000
9.973638996115589e-001	-1.000000e+000	8.332911e+000
9.983394630846624e-001	-1.000000e+000	8.399334e+000
9.988718518198286e-001	-1.000000e+000	8.421230e+000
9.990649639493453e-001	-1.000000e+000	8.425749e+000
9.991986833851532e-001	-1.000000e+000	8.428423e+000
9.993324028209609e-001	-1.000000e+000	8.430928e+000
9.994661222567688e-001	-1.000000e+000	8.433264e+000
9.995998416925767e-001	-1.000000e+000	8.435430e+000
9.997335611283845e-001	-1.000000e+000	8.437427e+000
9.998672805641923e-001	-1.000000e+000	8.439255e+000
1.000001000000000e+000	-1.000000e+000	8.440914e+000
1.000002000000000e+000	1.000000e+000	8.441033e+000
1.000189239904537e+000	1.000000e+000	8.437924e+000
1.000376479809075e+000	1.000000e+000	8.434017e+000
1.000563719713612e+000	1.000000e+000	8.429312e+000
1.000750959618149e+000	1.000000e+000	8.423808e+000
1.000938199522687e+000	1.000000e+000	8.417506e+000
1.001125439427224e+000	1.000000e+000	8.410407e+000
1.001312679331761e+000	1.000000e+000	8.402509e+000
1.002146980686161e+000	1.000000e+000	8.350846e+000
1.003013585649023e+000	1.000000e+000	8.275905e+000
1.003609185928305e+000	1.000000e+000	8.217586e+000
1.004249669670015e+000	1.000000e+000	8.153606e+000
1.100002000000000e+000	1.000000e+000	-1.421562e+000
1.100002006274291e+000	9.874514e-001	-1.421740e+000
1.100002018822874e+000	9.623542e-001	-1.422063e+000
1.100002043920040e+000	9.121599e-001	-1.422587e+000
1.100002062558755e+000	8.748825e-001	-1.422848e+000
1.100002086233570e+000	8.275329e-001	-1.423012e+000
1.100002112101124e+000	7.757977e-001	-1.423064e+000
1.100002225957778e+000	5.480844e-001	-1.422967e+000
1.100003000000000e+000	-1.000000e+000	-1.422956e+000
1.100003013936292e+000	-1.000000e+000	-1.422569e+000
1.100003032518015e+000	-1.000000e+000	-1.422128e+000
1.100003047694109e+000	-1.000000e+000	-1.421855e+000
1.100003070793909e+000	-1.000000e+000	-1.421597e+000
1.100003092248674e+000	-1.000000e+000	-1.421489e+000
1.100003132693028e+000	-1.000000e+000	-1.421464e+000
1.100003198531721e+000	-1.000000e+000	-1.421534e+000
1.100003240160740e+000	-1.000000e+000	-1.421551e+000
1.194043237764795e+000	-1.000000e+000	7.982339e+000
1.195605737764795e+000	-1.000000e+000	8.138443e+000
1.197168237764795e+000	-1.000000e+000	8.288103e+000
1.198348446041182e+000	-1.000000e+000	8.387144e+000
1.198569096199966e+000	-1.000000e+000	8.399908e+000
1.199010396517532e+000	-1.000000e+000	8.416102e+000
1.199118399364867e+000	-1.000000e+000	8.419294e+000
1.199244485169886e+000	-1.000000e+000	8.422387e+000
1.199370570974905e+000	-1.000000e+000	8.425272e+000
1.199496656779924e+000	-1.000000e+000	8.427950e+000
1.199622742584943e+000	-1.000000e+000	8.430421e+000
1.199748828389962e+000	-1.000000e+000	8.432684e+000
1.199874914194981e+000	-1.000000e+000	8.434740e+000
1.200001000000000e+000	-1.000000e+000	8.436588e+000
1.200002000000000e+000	1.000000e+000	8.436728e+000
1.200095617142860e+000	1.000000e+000	8.434901e+000
1.200189234285720e+000	1.000000e+000	8.432897e+000
1.200282851428580e+000	1.000000e+000	8.430716e+000
1.200376468571440e+000	1.000000e+000	8.428359e+000
1.200470085714299e+000	1.000000e+000	8.425824e+000
1.200563702857159e+000	1.000000e+000	8.423113e+000
1.200657320000019e+000	1.000000e+000	8.420225e+000
1.201312680000038e+000	1.000000e+000	8.389652e+000
1.202268813895486e+000	1.000000e+000	8.320001e+000
1.203158314000676e+000	1.000000e+000	8.237697e+000
1.203981588335606e+000	1.000000e+000	8.155777e+000
1.206362279557627e+000	1.000000e+000	7.917720e+000
1.300002000000000e+000	1.000000e+000	-1.446192e+000
1.300002006243997e+000	9.875120e-001	-1.446370e+000
1.300002018731990e+000	9.625360e-001	-1.446693e+000
1.300002043707977e+000	9.125841e-001	-1.447216e+000
1.300002062292959e+000	8.754141e-001	-1.447477e+000
1.300002085961649e+000	8.280767e-001	-1.447642e+000
1.300002111775330e+000	7.764493e-001	-1.447695e+000
1.300002225622802e+000	5.487544e-001	-1.447598e+000
1.300003000000000e+000	-1.000000e+000	-1.447587e+000
1.300003013952310e+000	-1.000000e+000	-1.447200e+000
1.300003032555389e+000	-1.000000e+000	-1.446758e+000
1.300003047731651e+000	-1.000000e+000	-1.446485e+000
1.300003070841630e+000	-1.000000e+000	-1.446227e+000
1.300003092301689e+000	-1.000000e+000	-1.446120e+000
1.300003132803865e+000	-1.000000e+000	-1.446095e+000
1.300003198832000e+000	-1.000000e+000	-1.446165e+000
1.300003240472722e+000	-1.000000e+000	-1.446182e+000
1.394049903424390e+000	-1.000000e+000	7.958376e+000
1.395612403424390e+000	-1.000000e+000	8.114564e+000
1.397174903424390e+000	-1.000000e+000	8.266327e+000
1.398439500000000e+000	-1.000000e+000	8.381268e+000
1.398512357142835e+000	-1.000000e+000	8.385561e+000
1.398585214285670e+000	-1.000000e+000	8.389565e+000
1.398658071428505e+000	-1.000000e+000	8.393279e+000
1.398730928571340e+000	-1.000000e+000	8.396703e+000
1.398803785714175e+000	-1.000000e+000	8.399837e+000
1.398876642857010e+000	-1.000000e+000	8.402682e+000
1.398949499999845e+000	-1.000000e+000	8.405236e+000
1.399099714285581e+000	-1.000000e+000	8.410665e+000
1.399249928571318e+000	-1.000000e+000	8.415595e+000
1.399400142857054e+000	-1.000000e+000	8.420026e+000
1.399550357142791e+000	-1.000000e+000	8.423958e+000
1.399700571428527e+000	-1.000000e+000	8.427391e+000
1.399850785714264e+000	-1.000000e+000	8.430326e+000
1.400001000000000e+000	-1.000000e+000	8.432761e+000
1.400002000000000e+000	1.000000e+000	8.432921e+000
1.400095617142808e+000	1.000000e+000	8.430883e+000
1.400189234285616e+000	1.000000e+000	8.428621e+000
1.400282851428424e+000	1.000000e+000	8.426135e+000
1.400376468571232e+000	1.000000e+000	8.423425e+000
1.400470085714040e+000	1.000000e+000	8.420491e+000
1.400563702856847e+000	1.000000e+000	8.417333e+000
1.400657319999655e+000	1.000000e+000	8.413951e+000
1.401312679999310e+000	1.000000e+000	8.379624e+000
1.402150743666533e+000	1.000000e+000	8.315101e+000
1.402856033631078e+000	1.000000e+000	8.248814e+000
1.403557903227098e+000	1.000000e+000	8.178960e+000
1.404372724545923e+000	1.000000e+000	8.097501e+000
1.500000937279284e+000	1.000000e+000	-1.465261e+000
1.500002000000000e+000	1.000000e+000	-1.465368e+000
1.500002006630652e+000	9.867387e-001	-1.465555e+000
1.500002019891956e+000	9.602161e-001	-1.465892e+000
1.500002046414564e+000	9.071709e-001	-1.466429e+000
1.500002066108954e+000	8.677821e-001	-1.466688e+000
1.500002089804460e+000	8.203911e-001	-1.466831e+000
1.500002117046125e+000	7.659078e-001	-1.466871e+000
1.500002228695210e+000	5.426096e-001	-1.466771e+000
1.500003000000000e+000	-1.000000e+000	-1.466762e+000
1.500003015246269e+000	-1.000000e+000	-1.466343e+000
1.500003035574628e+000	-1.000000e+000	-1.465874e+000
1.500003050794689e+000	-1.000000e+000	-1.465616e+000
1.500003074699755e+000	-1.000000e+000	-1.465375e+000
1.500003096635718e+000	-1.000000e+000	-1.465283e+000
1.500003140507644e+000	-1.000000e+000	-1.465277e+000
1.500003221351102e+000	-1.000000e+000	-1.465353e+000
1.500003608629308e+000	-1.000000e+000	-1.465315e+000
1.500003995907514e+000	-1.000000e+000	-1.465278e+000
1.500004383185720e+000	-1.000000e+000	-1.465239e+000
1.500004770463926e+000	-1.000000e+000	-1.465201e+000
1.500005157742133e+000	-1.000000e+000	-1.465162e+000
1.500005545020339e+000	-1.000000e+000	-1.465123e+000
1.500005932298545e+000	-1.000000e+000	-1.465083e+000
1.594687674548538e+000	-1.000000e+000	8.002976e+000
1.596250174548538e+000	-1.000000e+000	8.158916e+000
1.597812674548538e+000	-1.000000e+000	8.311431e+000
1.598438500000000e+000	-1.000000e+000	8.366121e+000
1.598749349097075e+000	-1.000000e+000	8.386058e+000
1.598874591696236e+000	-1.000000e+000	8.392989e+000
1.598999834295397e+000	-1.000000e+000	8.399284e+000
1.599125076894558e+000	-1.000000e+000	8.404941e+000
1.599250319493720e+000	-1.000000e+000	8.409961e+000
1.599375562092881e+000	-1.000000e+000	8.414345e+000
1.599500804692042e+000	-1.000000e+000	8.418091e+000
1.599626047291203e+000	-1.000000e+000	8.421201e+000
1.599999538139548e+000	-1.000000e+000	8.429370e+000
1.600000000000000e+000	-1.000000e+000	8.429379e+000
