time	V(vc)	V(vout)
0.000000000000000e+000	1.309260e-005	1.313265e-005
1.146836875006556e-004	1.309253e-005	1.294012e-005
1.188829062506556e-004	1.309290e-005	1.399092e-005
1.221501363870378e-004	1.309163e-005	1.032412e-005
1.244078500515573e-004	1.601132e-005	8.455105e-003
1.251013150438537e-004	2.375872e-005	3.086315e-002
1.254067399501343e-004	3.502243e-005	6.344090e-002
1.255916936556830e-004	4.952817e-005	1.053928e-001
1.257599242351823e-004	7.280747e-005	1.727073e-001
1.259331814008344e-004	1.132968e-004	2.897305e-001
1.261155793707838e-004	1.851995e-004	4.972703e-001
1.262949498739512e-004	3.058143e-004	8.439050e-001
1.264795271833702e-004	5.174606e-004	1.444359e+000
1.266638703675499e-004	8.750408e-004	2.421060e+000
1.268531041513868e-004	1.438527e-003	3.869997e+000
1.269628057123485e-004	1.905718e-003	4.939084e+000
1.270839096968644e-004	2.587899e-003	6.263122e+000
1.272063253293379e-004	3.427434e-003	7.502990e+000
1.273174605544849e-004	4.298707e-003	8.175839e+000
1.274682958442319e-004	5.554016e-003	8.414347e+000
1.285104944286421e-004	1.435735e-002	8.441406e+000
1.295526930130522e-004	2.315557e-002	8.462404e+000
1.305948915974624e-004	3.194869e-002	8.477340e+000
1.316370901818726e-004	4.073669e-002	8.486214e+000
1.326792887662827e-004	4.951958e-002	8.489026e+000
1.337214873506929e-004	5.829735e-002	8.485777e+000
1.347636859351031e-004	6.707002e-002	8.476466e+000
1.583999122704495e-004	2.634030e-001	8.482466e+000
1.820361386057958e-004	4.552864e-001	8.483688e+000
2.056723649411422e-004	6.427202e-001	8.480131e+000
2.293085912764886e-004	8.257044e-001	8.471796e+000
2.529448176118350e-004	1.004239e+000	8.458683e+000
2.765810439471813e-004	1.178324e+000	8.440791e+000
3.002172702825277e-004	1.347960e+000	8.418121e+000
3.013651310483834e-004	1.356092e+000	8.422971e+000
3.025129918142391e-004	1.364202e+000	8.422536e+000
3.036608525800948e-004	1.372290e+000	8.416817e+000
3.048087133459505e-004	1.380356e+000	8.405814e+000
3.059565741118061e-004	1.388401e+000	8.389527e+000
3.071044348776619e-004	1.396424e+000	8.367955e+000
3.082522956435176e-004	1.404425e+000	8.341100e+000
3.086041720755796e-004	1.406860e+000	8.293089e+000
3.087154123654147e-004	1.407623e+000	8.247792e+000
3.088635624589126e-004	1.408628e+000	8.143926e+000
3.089989954520753e-004	1.409529e+000	7.992300e+000
3.091557113347668e-004	1.410536e+000	7.710104e+000
3.093318764820496e-004	1.411596e+000	7.190429e+000
3.095199218697825e-004	1.412583e+000	6.259154e+000
3.097435792656902e-004	1.413528e+000	4.620900e+000
3.098462491115482e-004	1.413830e+000	3.642293e+000
3.099587491327410e-004	1.414008e+000	2.418163e+000
3.100755150104550e-004	1.414050e+000	1.115951e+000
3.101846954301834e-004	1.413944e+000	-1.051774e-001
3.105568578197143e-004	1.412409e+000	-4.263258e+000
3.109243551939570e-004	1.409609e+000	-7.290550e+000
3.113328431388004e-004	1.405803e+000	-8.415157e+000
3.124782492900652e-004	1.394521e+000	-8.464241e+000
3.148491768662557e-004	1.371157e+000	-8.470401e+000
3.172201044424462e-004	1.347847e+000	-8.475107e+000
3.195910320186368e-004	1.324590e+000	-8.478361e+000
3.219619595948273e-004	1.301387e+000	-8.480161e+000
3.243328871710178e-004	1.278238e+000	-8.480509e+000
3.267038147472084e-004	1.255142e+000	-8.479403e+000
3.290747423233989e-004	1.232100e+000	-8.476845e+000
3.482711708948276e-004	1.047662e+000	-8.476845e+000
3.674675994662563e-004	8.665711e-001	-8.476845e+000
3.866640280376850e-004	6.888267e-001	-8.476845e+000
4.058604566091137e-004	5.144290e-001	-8.476845e+000
4.250568851805424e-004	3.433781e-001	-8.476845e+000
4.442533137519711e-004	1.756740e-001	-8.476845e+000
4.634497423233997e-004	1.131657e-002	-8.476845e+000
4.676489610733997e-004	-2.425240e-002	-8.476845e+000
4.802466173233998e-004	-1.300675e-001	-8.476845e+000
5.030423762519711e-004	-3.181249e-001	-8.483358e+000
5.258381351805424e-004	-5.020440e-001	-8.484600e+000
5.486338941091137e-004	-6.818246e-001	-8.480571e+000
5.714296530376849e-004	-8.574669e-001	-8.471272e+000
5.942254119662562e-004	-1.028971e+000	-8.456702e+000
6.170211708948275e-004	-1.196336e+000	-8.436862e+000
6.398169298233988e-004	-1.359563e+000	-8.411751e+000
6.407530025915666e-004	-1.366185e+000	-8.420463e+000
6.416890753597343e-004	-1.372789e+000	-8.422299e+000
6.426251481279021e-004	-1.379375e+000	-8.417258e+000
6.435612208960698e-004	-1.385943e+000	-8.405340e+000
6.444972936642376e-004	-1.392493e+000	-8.386546e+000
6.454333664324053e-004	-1.399025e+000	-8.360874e+000
6.463694392005731e-004	-1.405540e+000	-8.328326e+000
6.465999565534604e-004	-1.407131e+000	-8.280161e+000
6.467118108020379e-004	-1.407896e+000	-8.225163e+000
6.468402765472260e-004	-1.408763e+000	-8.119323e+000
6.470105196425919e-004	-1.409884e+000	-7.891490e+000
6.471840977578017e-004	-1.410973e+000	-7.500717e+000
6.473774755262589e-004	-1.412076e+000	-6.761180e+000
6.475723192588611e-004	-1.413030e+000	-5.609840e+000
6.476946925122255e-004	-1.413507e+000	-4.608860e+000
6.477865585712370e-004	-1.413758e+000	-3.685111e+000
6.479033492618167e-004	-1.413941e+000	-2.401264e+000
6.480198726838874e-004	-1.413980e+000	-1.091079e+000
6.484937146882167e-004	-1.412378e+000	4.248780e+000
6.488381770033888e-004	-1.409786e+000	7.150361e+000
6.492447356793795e-004	-1.406024e+000	8.360161e+000
6.497075529758664e-004	-1.401481e+000	8.452102e+000
6.521768239590592e-004	-1.377144e+000	8.473639e+000
6.734848811938459e-004	-1.169639e+000	8.475062e+000
6.947929384286327e-004	-9.662838e-001	8.476155e+000
7.161009956634195e-004	-7.670796e-001	8.476918e+000
7.374090528982062e-004	-5.720261e-001	8.477351e+000
7.587171101329930e-004	-3.811234e-001	8.477454e+000
7.800251673677797e-004	-1.943715e-001	8.477226e+000
8.013332246025665e-004	-1.177027e-002	8.476668e+000
8.055324433525664e-004	2.379984e-002	8.476664e+000
8.181300996025664e-004	1.296183e-001	8.476650e+000
8.409258585311376e-004	3.176802e-001	8.483121e+000
8.637216174597089e-004	5.016042e-001	8.484348e+000
8.865173763882802e-004	6.813902e-001	8.480332e+000
9.093131353168515e-004	8.570383e-001	8.471074e+000
9.321088942454228e-004	1.028548e+000	8.456572e+000
9.549046531739942e-004	1.195921e+000	8.436827e+000
9.777004121025654e-004	1.359155e+000	8.411839e+000
9.786445625545625e-004	1.365834e+000	8.420421e+000
9.795887130065598e-004	1.372494e+000	8.422167e+000
9.805328634585569e-004	1.379137e+000	8.417076e+000
9.814770139105543e-004	1.385762e+000	8.405149e+000
9.824211643625514e-004	1.392369e+000	8.386385e+000
9.833653148145487e-004	1.398958e+000	8.360784e+000
9.843094652665458e-004	1.405529e+000	8.328347e+000
9.845409086474172e-004	1.407126e+000	8.280572e+000
9.846532858259480e-004	1.407895e+000	8.225974e+000
9.847826866089314e-004	1.408769e+000	8.120671e+000
9.849528991935799e-004	1.409890e+000	7.895915e+000
9.851268803019420e-004	1.410982e+000	7.509716e+000
9.853216511836768e-004	1.412095e+000	6.776046e+000
9.855169266252645e-004	1.413055e+000	5.637891e+000
9.856417803669080e-004	1.413545e+000	4.629169e+000
9.857342845377493e-004	1.413800e+000	3.709315e+000
9.858515165040321e-004	1.413987e+000	2.433067e+000
9.859685571946960e-004	1.414031e+000	1.128576e+000
9.860828648065542e-004	1.413920e+000	-1.498981e-001
9.864461657822525e-004	1.412431e+000	-4.222953e+000
9.867939278238747e-004	1.409820e+000	-7.150881e+000
9.871982652910481e-004	1.406081e+000	-8.359986e+000
9.876610711397184e-004	1.401538e+000	-8.452057e+000
9.901178427049958e-004	1.377324e+000	-8.473607e+000
1.011424353198374e-003	1.169830e+000	-8.475071e+000
1.032730863691753e-003	9.664843e-001	-8.476201e+000
1.054037374185131e-003	7.672888e-001	-8.476997e+000
1.075343884678510e-003	5.722431e-001	-8.477460e+000
1.096650395171888e-003	3.813472e-001	-8.477588e+000
1.117956905665267e-003	1.946010e-001	-8.477383e+000
1.139263416158645e-003	1.200453e-002	-8.476845e+000
1.143462634908645e-003	-2.356732e-002	-8.476845e+000
1.156060291158645e-003	-1.293910e-001	-8.476845e+000
1.178856050087216e-003	-3.174631e-001	-8.483309e+000
1.201651809015788e-003	-5.013969e-001	-8.484537e+000
1.224447567944359e-003	-6.811925e-001	-8.480529e+000
1.247243326872930e-003	-8.568498e-001	-8.471283e+000
1.270039085801501e-003	-1.028369e+000	-8.456801e+000
1.292834844730073e-003	-1.195750e+000	-8.437082e+000
1.315630603658644e-003	-1.358992e+000	-8.412127e+000
1.316577000388724e-003	-1.365687e+000	-8.420516e+000
1.317523397118805e-003	-1.372364e+000	-8.422170e+000
1.318469793848886e-003	-1.379023e+000	-8.417088e+000
1.319416190578967e-003	-1.385664e+000	-8.405270e+000
1.320362587309047e-003	-1.392287e+000	-8.386716e+000
1.321308984039128e-003	-1.398892e+000	-8.361426e+000
1.322255380769209e-003	-1.405479e+000	-8.329400e+000
1.322488419677320e-003	-1.407088e+000	-8.282680e+000
1.322599037804380e-003	-1.407845e+000	-8.230050e+000
1.322728267627429e-003	-1.408719e+000	-8.127194e+000
1.322891244904341e-003	-1.409795e+000	-7.918067e+000
1.323060484144041e-003	-1.410862e+000	-7.554358e+000
1.323255536465114e-003	-1.411989e+000	-6.847067e+000
1.323445356855792e-003	-1.412935e+000	-5.765497e+000
1.323587789561842e-003	-1.413501e+000	-4.626837e+000
1.323679745031870e-003	-1.413761e+000	-3.713511e+000
1.323791205149118e-003	-1.413942e+000	-2.490628e+000
1.323904183931893e-003	-1.413991e+000	-1.220782e+000
1.324145447023831e-003	-1.413566e+000	1.498108e+000
1.324389383274632e-003	-1.412360e+000	4.242579e+000
1.324751217883806e-003	-1.409626e+000	7.256442e+000
1.325161936967023e-003	-1.405803e+000	8.406698e+000
1.325630844447907e-003	-1.401190e+000	8.452987e+000
1.328104862519316e-003	-1.376807e+000	8.473701e+000
1.349416147947025e-003	-1.169277e+000	8.475096e+000
1.370727433374735e-003	-9.658995e-001	8.476167e+000
1.392038718802444e-003	-7.666734e-001	8.476915e+000
1.413350004230154e-003	-5.715993e-001	8.477339e+000
1.434661289657863e-003	-3.806769e-001	8.477439e+000
1.455972575085573e-003	-1.939064e-001	8.477215e+000
1.477283860513282e-003	-1.128772e-002	8.476668e+000
1.481483079263282e-003	2.428037e-002	8.476664e+000
1.494080735513282e-003	1.300928e-001	8.476650e+000
1.516876494441853e-003	3.181444e-001	8.483155e+000
1.539672253370425e-003	5.020580e-001	8.484392e+000
1.562468012298996e-003	6.818336e-001	8.480363e+000
1.585263771227567e-003	8.574711e-001	8.471066e+000
1.608059530156138e-003	1.028971e+000	8.456503e+000
1.630855289084710e-003	1.196332e+000	8.436672e+000
1.653651048013281e-003	1.359556e+000	8.411574e+000
1.654585976120049e-003	1.366169e+000	8.420074e+000
1.655520904226818e-003	1.372764e+000	8.421824e+000
1.656455832333586e-003	1.379342e+000	8.416825e+000
1.657390760440354e-003	1.385902e+000	8.405075e+000
1.658325688547123e-003	1.392444e+000	8.386577e+000
1.659260616653891e-003	1.398969e+000	8.361328e+000
1.660195544760659e-003	1.405475e+000	8.329330e+000
1.660429737933444e-003	1.407092e+000	8.282819e+000
1.660540662713060e-003	1.407852e+000	8.230556e+000
1.660670816608192e-003	1.408732e+000	8.127973e+000
1.660834241978139e-003	1.409811e+000	7.920442e+000
1.661004179526667e-003	1.410883e+000	7.559116e+000
1.661200565530070e-003	1.412019e+000	6.854953e+000
1.661391172803852e-003	1.412970e+000	5.780460e+000
1.661535166958876e-003	1.413545e+000	4.640969e+000
1.661627877035801e-003	1.413808e+000	3.729104e+000
1.661740631179760e-003	1.413993e+000	2.503445e+000
1.661854717054498e-003	1.414045e+000	1.232308e+000
1.661969437968228e-003	1.413945e+000	-5.066353e-002
1.662340700133428e-003	1.412426e+000	-4.211570e+000
1.662702534458283e-003	1.409700e+000	-7.236405e+000
1.663109573941154e-003	1.405919e+000	-8.398262e+000
1.663576780122277e-003	1.401325e+000	-8.452662e+000
1.666032019045218e-003	1.377127e+000	-8.473643e+000
1.687337349303499e-003	1.169647e+000	-8.475091e+000
1.708642679561781e-003	9.663169e-001	-8.476208e+000
1.729948009820062e-003	7.671358e-001	-8.476995e+000
1.751253340078343e-003	5.721041e-001	-8.477453e+000
1.772558670336624e-003	3.812215e-001	-8.477580e+000
1.793864000594905e-003	1.944882e-001	-8.477377e+000
1.815169330853186e-003	1.190413e-002	-8.476845e+000
1.819368549603186e-003	-2.366730e-002	-8.476845e+000
1.831966205853186e-003	-1.294897e-001	-8.476845e+000
1.854761964781758e-003	-3.175597e-001	-8.483316e+000
1.877557723710329e-003	-5.014914e-001	-8.484546e+000
1.900353482638901e-003	-6.812848e-001	-8.480535e+000
1.923149241567473e-003	-8.569399e-001	-8.471282e+000
1.945945000496044e-003	-1.028457e+000	-8.456787e+000
1.968740759424616e-003	-1.195835e+000	-8.437050e+000
1.991536518353187e-003	-1.359076e+000	-8.412072e+000
1.992481425710626e-003	-1.365760e+000	-8.420510e+000
1.993426333068064e-003	-1.372426e+000	-8.422190e+000
1.994371240425502e-003	-1.379074e+000	-8.417113e+000
1.995316147782941e-003	-1.385705e+000	-8.405279e+000
1.996261055140380e-003	-1.392317e+000	-8.386687e+000
1.997205962497818e-003	-1.398912e+000	-8.361338e+000
1.998150869855257e-003	-1.405489e+000	-8.329231e+000
1.998383475316581e-003	-1.407095e+000	-8.282298e+000
1.998494271077634e-003	-1.407853e+000	-8.229317e+000
1.998623363488426e-003	-1.408726e+000	-8.126033e+000
1.998787420712448e-003	-1.409808e+000	-7.914198e+000
1.998957279557029e-003	-1.410879e+000	-7.546647e+000
1.999152064982295e-003	-1.412002e+000	-6.834765e+000
1.999342601312723e-003	-1.412949e+000	-5.743805e+000
1.999481474019692e-003	-1.413500e+000	-4.630598e+000
1.999573261406913e-003	-1.413759e+000	-3.717870e+000
1.999684839018411e-003	-1.413941e+000	-2.493876e+000
1.999797835887403e-003	-1.413990e+000	-1.223888e+000
2.000039096868512e-003	-1.413566e+000	1.494978e+000
2.000283756922504e-003	-1.412356e+000	4.247405e+000
2.000645325215012e-003	-1.409623e+000	7.257837e+000
2.001056126223877e-003	-1.405799e+000	8.407001e+000
2.001525025696897e-003	-1.401187e+000	8.452989e+000
2.003999522202808e-003	-1.376799e+000	8.473702e+000
2.025310973570384e-003	-1.169268e+000	8.475097e+000
2.046622424937960e-003	-9.658885e-001	8.476168e+000
2.067933876305537e-003	-7.666611e-001	8.476915e+000
2.089245327673113e-003	-5.715857e-001	8.477339e+000
2.110556779040689e-003	-3.806622e-001	8.477439e+000
2.131868230408265e-003	-1.938905e-001	8.477215e+000
2.153179681775841e-003	-1.127078e-002	8.476668e+000
2.157378900525841e-003	2.429724e-002	8.476664e+000
2.169976556775842e-003	1.301094e-001	8.476650e+000
2.192772315704414e-003	3.181607e-001	8.483156e+000
2.215568074632987e-003	5.020739e-001	8.484393e+000
2.238363833561559e-003	6.818492e-001	8.480363e+000
2.261159592490132e-003	8.574863e-001	8.471065e+000
2.283955351418704e-003	1.028985e+000	8.456500e+000
2.306751110347277e-003	1.196347e+000	8.436666e+000
2.329546869275849e-003	1.359570e+000	8.411565e+000
2.330481546276176e-003	1.366181e+000	8.420073e+000
2.331416223276502e-003	1.372775e+000	8.421829e+000
2.332350900276828e-003	1.379351e+000	8.416830e+000
2.333285577277155e-003	1.385909e+000	8.405078e+000
2.334220254277482e-003	1.392449e+000	8.386573e+000
2.335154931277808e-003	1.398972e+000	8.361314e+000
2.336089608278134e-003	1.405477e+000	8.329302e+000
2.336323728025497e-003	1.407094e+000	8.282754e+000
2.336434685256612e-003	1.407853e+000	8.230430e+000
2.336564816389362e-003	1.408733e+000	8.127773e+000
2.336728422658335e-003	1.409813e+000	7.919793e+000
2.336898461841561e-003	1.410886e+000	7.557833e+000
2.337094801564747e-003	1.412021e+000	6.852909e+000
2.337285528183649e-003	1.412973e+000	5.776885e+000
2.337428895975279e-003	1.413545e+000	4.641887e+000
2.337521531737634e-003	1.413808e+000	3.730618e+000
2.337634249246022e-003	1.413993e+000	2.505425e+000
2.337748296501142e-003	1.414044e+000	1.234742e+000
2.337863114729994e-003	1.413945e+000	-4.931502e-002
2.338234589425366e-003	1.412425e+000	-4.212477e+000
2.338596594026564e-003	1.409698e+000	-7.237975e+000
2.339003717487664e-003	1.405915e+000	-8.398890e+000
2.339471011930303e-003	1.401320e+000	-8.452672e+000
2.341926455971569e-003	1.377120e+000	-8.473644e+000
2.363231896077076e-003	1.169639e+000	-8.475091e+000
2.384537336182583e-003	9.663083e-001	-8.476208e+000
2.405842776288090e-003	7.671265e-001	-8.476996e+000
2.427148216393597e-003	5.720939e-001	-8.477453e+000
2.448453656499104e-003	3.812106e-001	-8.477580e+000
2.469759096604612e-003	1.944765e-001	-8.477377e+000
2.491064536710119e-003	1.189176e-002	-8.476845e+000
2.495263755460119e-003	-2.367962e-002	-8.476845e+000
2.507861411710120e-003	-1.295019e-001	-8.476845e+000
2.530657170638692e-003	-3.175716e-001	-8.483317e+000
2.553452929567265e-003	-5.015030e-001	-8.484547e+000
2.576248688495837e-003	-6.812961e-001	-8.480535e+000
2.599044447424410e-003	-8.569509e-001	-8.471281e+000
2.621840206352982e-003	-1.028467e+000	-8.456785e+000
2.644635965281555e-003	-1.195846e+000	-8.437046e+000
2.667431724210127e-003	-1.359086e+000	-8.412066e+000
2.668376445720537e-003	-1.365769e+000	-8.420508e+000
2.669321167230948e-003	-1.372434e+000	-8.422191e+000
2.670265888741359e-003	-1.379081e+000	-8.417115e+000
2.671210610251769e-003	-1.385710e+000	-8.405279e+000
2.672155331762180e-003	-1.392321e+000	-8.386683e+000
2.673100053272590e-003	-1.398914e+000	-8.361327e+000
2.674044774783001e-003	-1.405490e+000	-8.329212e+000
2.674277334609638e-003	-1.407095e+000	-8.282254e+000
2.674388151080603e-003	-1.407854e+000	-8.229233e+000
2.674517228370204e-003	-1.408726e+000	-8.125898e+000
2.674681409935175e-003	-1.409810e+000	-7.913751e+000
2.674851340714498e-003	-1.410880e+000	-7.545752e+000
2.675046095786061e-003	-1.412003e+000	-6.833337e+000
2.675236715259825e-003	-1.412951e+000	-5.741272e+000
2.675375193440144e-003	-1.413500e+000	-4.630853e+000
2.675466980504400e-003	-1.413759e+000	-3.717982e+000
2.675578599180750e-003	-1.413941e+000	-2.493538e+000
2.675691618090449e-003	-1.413990e+000	-1.223304e+000
2.675932906602062e-003	-1.413566e+000	1.495873e+000
2.676177503517386e-003	-1.412356e+000	4.247737e+000
2.676538914998059e-003	-1.409624e+000	7.257309e+000
2.676949656491552e-003	-1.405801e+000	8.406769e+000
2.677418479881379e-003	-1.401189e+000	8.452985e+000
2.679892773245460e-003	-1.376804e+000	8.473701e+000
2.701204069462003e-003	-1.169274e+000	8.475096e+000
2.722515365678546e-003	-9.658958e-001	8.476167e+000
2.743826661895089e-003	-7.666698e-001	8.476915e+000
2.765137958111631e-003	-5.715955e-001	8.477339e+000
2.786449254328174e-003	-3.806732e-001	8.477439e+000
2.807760550544717e-003	-1.939027e-001	8.477215e+000
2.829071846761260e-003	-1.128398e-002	8.476668e+000
2.833271065511260e-003	2.428410e-002	8.476664e+000
2.845868721761261e-003	1.300965e-001	8.476650e+000
2.868664480689833e-003	3.181480e-001	8.483155e+000
2.891460239618406e-003	5.020615e-001	8.484393e+000
2.914255998546978e-003	6.818370e-001	8.480363e+000
2.937051757475551e-003	8.574745e-001	8.471066e+000
2.959847516404123e-003	1.028974e+000	8.456502e+000
2.982643275332696e-003	1.196335e+000	8.436670e+000
3.005439034261268e-003	1.359559e+000	8.411572e+000
3.006373902648022e-003	1.366171e+000	8.420073e+000
3.007308771034778e-003	1.372766e+000	8.421824e+000
3.008243639421532e-003	1.379344e+000	8.416825e+000
3.009178507808287e-003	1.385903e+000	8.405075e+000
3.010113376195042e-003	1.392445e+000	8.386576e+000
3.011048244581797e-003	1.398969e+000	8.361327e+000
3.011983112968551e-003	1.405476e+000	8.329328e+000
3.012217299100052e-003	1.407093e+000	8.282812e+000
3.012328227013407e-003	1.407852e+000	8.230542e+000
3.012458378448366e-003	1.408732e+000	8.127953e+000
3.012621822548925e-003	1.409811e+000	7.920376e+000
3.012791770689330e-003	1.410883e+000	7.558985e+000
3.012988151916253e-003	1.412019e+000	6.854744e+000
3.013178771479355e-003	1.412971e+000	5.780093e+000
3.013322701054691e-003	1.413545e+000	4.641066e+000
3.013415403451661e-003	1.413808e+000	3.729263e+000
3.013528153564368e-003	1.413993e+000	2.503655e+000
3.013642235293982e-003	1.414045e+000	1.232567e+000
