time	V(vf2)	V(vg1)	V(vn002)	V(vref)	V(n002)
0.000000000000000e+000	2.999930e+000	0.000000e+000	-2.999726e-001	3.000000e+000	1.951127e-005
8.790323123587782e-009	2.999930e+000	1.406452e-003	-2.999722e-001	3.000000e+000	2.261593e-005
1.758064624717556e-008	2.999930e+000	2.812903e-003	-2.999731e-001	3.000000e+000	1.549798e-005
2.637096937076335e-008	2.999930e+000	4.219355e-003	-2.999754e-001	3.000000e+000	-1.842584e-006
3.516129249435113e-008	2.999930e+000	5.625807e-003	-2.999790e-001	3.000000e+000	-2.940575e-005
4.395161561793891e-008	2.999930e+000	7.032258e-003	-2.999839e-001	3.000000e+000	-6.719153e-005
5.274193874152669e-008	2.999930e+000	8.438710e-003	-2.999902e-001	3.000000e+000	-1.151999e-004
6.153226186511445e-008	2.999930e+000	9.845162e-003	-2.999978e-001	3.000000e+000	-1.734309e-004
8.442215456545632e-008	2.999930e+000	1.350754e-002	-3.000286e-001	3.000000e+000	-4.099508e-004
1.184907541764639e-007	2.999930e+000	1.895852e-002	-3.001018e-001	3.000000e+000	-9.711523e-004
1.713425534702005e-007	2.999930e+000	2.741481e-002	-3.002907e-001	3.000000e+000	-2.418998e-003
2.694020889940468e-007	2.999930e+000	4.310434e-002	-3.009295e-001	3.000000e+000	-7.316537e-003
4.655211600417395e-007	2.999929e+000	7.448339e-002	-3.035926e-001	3.000000e+000	-2.774383e-002
8.527008682274943e-007	2.999925e+000	1.364321e-001	-3.137903e-001	3.000000e+000	-1.060530e-001
1.240597922141569e-006	2.999913e+000	1.984957e-001	-3.316349e-001	3.000000e+000	-2.433844e-001
1.624993476457434e-006	2.999887e+000	2.599989e-001	-3.575372e-001	3.000000e+000	-4.432833e-001
1.849609174668473e-006	2.999859e+000	2.959375e-001	-3.760552e-001	3.000000e+000	-5.869091e-001
2.123104323295859e-006	2.999805e+000	3.396967e-001	-3.950294e-001	3.000000e+000	-7.359299e-001
2.336940711465223e-006	2.999747e+000	3.739105e-001	-4.002976e-001	3.000000e+000	-7.807753e-001
2.582018011741644e-006	2.999653e+000	4.131229e-001	-3.993303e-001	3.000000e+000	-7.821233e-001
3.072172612294486e-006	2.999389e+000	4.915476e-001	-3.945320e-001	3.000000e+000	-7.783193e-001
3.863494289415758e-006	2.998798e+000	6.181591e-001	-3.800146e-001	3.000000e+000	-7.650410e-001
4.652377749720881e-006	2.997987e+000	7.443804e-001	-3.534341e-001	3.000000e+000	-7.399738e-001
5.676929670433842e-006	2.996591e+000	9.083087e-001	-2.942216e-001	3.000000e+000	-6.837252e-001
6.787380467331911e-006	2.994659e+000	1.085981e+000	-1.907527e-001	3.000000e+000	-5.852557e-001
8.048563006586743e-006	2.991937e+000	1.287770e+000	-1.209696e-002	3.000000e+000	-4.151403e-001
9.290153289621443e-006	2.988686e+000	1.486425e+000	2.455709e-001	3.000000e+000	-1.697551e-001
1.079118684379196e-005	2.983936e+000	1.726590e+000	7.006276e-001	3.000000e+000	2.636276e-001
1.285273813606167e-005	2.976368e+000	2.056438e+000	1.535341e+000	3.000000e+000	1.058596e+000
1.368799009212813e-005	2.972932e+000	2.190078e+000	1.956946e+000	3.000000e+000	1.460142e+000
1.422673123003763e-005	2.970521e+000	2.276277e+000	2.276895e+000	3.000000e+000	1.764916e+000
1.483108783637050e-005	2.967684e+000	2.372974e+000	2.671441e+000	3.000000e+000	2.140854e+000
1.528821462729697e-005	2.965455e+000	2.446114e+000	2.993517e+000	3.000000e+000	2.447878e+000
1.572326429189332e-005	2.963261e+000	2.515722e+000	3.321364e+000	3.000000e+000	2.760639e+000
1.609080403389873e-005	2.961353e+000	2.574529e+000	3.615489e+000	3.000000e+000	3.044833e+000
1.649435418580007e-005	2.959205e+000	2.639097e+000	3.963437e+000	3.000000e+000	3.435517e+000
1.678508588601847e-005	2.957625e+000	2.685614e+000	4.238131e+000	3.000000e+000	3.824908e+000
1.709054635115254e-005	2.955941e+000	2.734488e+000	4.545883e+000	3.000000e+000	4.303572e+000
1.738646595149028e-005	2.954295e+000	2.781835e+000	4.854617e+000	3.000000e+000	4.777662e+000
1.770467351014404e-005	2.952519e+000	2.832748e+000	5.192765e+000	3.000000e+000	5.251095e+000
1.810550631129519e-005	2.950282e+000	2.896881e+000	5.616946e+000	3.000000e+000	5.747807e+000
1.816105934544241e-005	2.949972e+000	2.905770e+000	5.675814e+000	3.000000e+000	5.807249e+000
1.849437755032574e-005	2.948123e+000	2.959100e+000	6.039167e+000	3.000000e+000	6.153934e+000
1.980763073530028e-005	2.940910e+000	3.169221e+000	7.534006e+000	3.000000e+000	7.578452e+000
2.061056692405950e-005	2.936555e+000	3.297691e+000	8.143129e+000	3.000000e+000	8.158766e+000
2.173142131528897e-005	2.930549e+000	3.477027e+000	8.396277e+000	3.000000e+000	8.399980e+000
2.286053793399541e-005	2.924591e+000	3.657686e+000	8.413560e+000	3.000000e+000	8.416493e+000
2.454397012556669e-005	2.915869e+000	3.927035e+000	8.421178e+000	3.000000e+000	8.423779e+000
2.625311522826410e-005	2.907229e+000	4.200499e+000	8.425303e+000	3.000000e+000	8.427718e+000
2.904842772676413e-005	2.893574e+000	4.647748e+000	8.429543e+000	3.000000e+000	8.431757e+000
3.266133511325938e-005	2.876896e+000	5.225813e+000	8.433581e+000	3.000000e+000	8.435599e+000
4.023437500000000e-005	2.843875e+000	6.437500e+000	8.440351e+000	3.000000e+000	8.442039e+000
4.134757675055108e-005	2.839468e+000	6.615612e+000	8.441084e+000	3.000000e+000	8.442739e+000
4.246077850110217e-005	2.835139e+000	6.793725e+000	8.441794e+000	3.000000e+000	8.443414e+000
4.357398025165325e-005	2.830889e+000	6.971837e+000	8.442478e+000	3.000000e+000	8.444064e+000
4.468718200220434e-005	2.826717e+000	7.149949e+000	8.443138e+000	3.000000e+000	8.444689e+000
4.580038375275542e-005	2.822624e+000	7.328062e+000	8.443773e+000	3.000000e+000	8.445290e+000
4.691358550330651e-005	2.818609e+000	7.506174e+000	8.444383e+000	3.000000e+000	8.445865e+000
4.802678725385759e-005	2.814672e+000	7.684286e+000	8.444968e+000	3.000000e+000	8.446416e+000
4.891974201984774e-005	2.811603e+000	7.827159e+000	8.445411e+000	3.000000e+000	8.446795e+000
5.005067750215972e-005	2.807784e+000	7.991891e+000	8.445951e+000	3.000000e+000	8.447201e+000
5.035474251511803e-005	2.806779e+000	7.943241e+000	8.446092e+000	3.000000e+000	8.447300e+000
5.055401017468959e-005	2.806124e+000	7.911358e+000	8.446182e+000	3.000000e+000	8.447375e+000
5.090137349905307e-005	2.804991e+000	7.855780e+000	8.446338e+000	3.000000e+000	8.447525e+000
5.159610014778002e-005	2.802754e+000	7.744624e+000	8.446643e+000	3.000000e+000	8.447850e+000
5.255253708189175e-005	2.799727e+000	7.591594e+000	8.447049e+000	3.000000e+000	8.448300e+000
5.363488104961388e-005	2.796379e+000	7.418419e+000	8.447493e+000	3.000000e+000	8.448777e+000
5.472250148359812e-005	2.793100e+000	7.244400e+000	8.447919e+000	3.000000e+000	8.449213e+000
5.591307261476303e-005	2.789637e+000	7.053908e+000	8.448359e+000	3.000000e+000	8.449648e+000
6.177873260589796e-005	2.774278e+000	6.115403e+000	8.450226e+000	3.000000e+000	8.451442e+000
6.738128383284164e-005	2.762330e+000	5.218995e+000	8.451593e+000	3.000000e+000	8.452751e+000
7.684399854500181e-005	2.747173e+000	3.704960e+000	8.453264e+000	3.000000e+000	8.454352e+000
8.660962354500180e-005	2.736752e+000	2.142460e+000	8.454392e+000	3.000000e+000	8.455436e+000
9.275049709000359e-005	2.733991e+000	1.159920e+000	8.454710e+000	3.000000e+000	8.455745e+000
9.676093598007882e-005	2.734002e+000	5.182502e-001	8.454751e+000	3.000000e+000	8.455788e+000
1.000000000000000e-004	2.734942e+000	0.000000e+000	8.454700e+000	3.000000e+000	8.455741e+000
1.057477678571429e-004	2.739408e+000	9.196429e-001	8.454396e+000	3.000000e+000	8.455448e+000
1.114955357142858e-004	2.746025e+000	1.839286e+000	8.453819e+000	3.000000e+000	8.454895e+000
1.172433035714287e-004	2.754794e+000	2.758929e+000	8.452969e+000	3.000000e+000	8.454080e+000
1.229910714285716e-004	2.765713e+000	3.678571e+000	8.451845e+000	3.000000e+000	8.453005e+000
1.287388392857144e-004	2.778784e+000	4.598214e+000	8.450448e+000	3.000000e+000	8.451669e+000
1.344866071428573e-004	2.794006e+000	5.517857e+000	8.448778e+000	3.000000e+000	8.450072e+000
1.402343750000002e-004	2.811380e+000	6.437500e+000	8.446834e+000	3.000000e+000	8.448214e+000
1.473414633910587e-004	2.836896e+000	7.574634e+000	8.443364e+000	3.000000e+000	8.444897e+000
1.485009169914904e-004	2.841363e+000	7.760147e+000	8.442707e+000	3.000000e+000	8.444252e+000
1.489206619536033e-004	2.843005e+000	7.827306e+000	8.442461e+000	3.000000e+000	8.444000e+000
1.495203037556579e-004	2.845382e+000	7.923249e+000	8.442097e+000	3.000000e+000	8.443598e+000
1.500479696244345e-004	2.847491e+000	7.992325e+000	8.441771e+000	3.000000e+000	8.443215e+000
1.503357873710398e-004	2.848651e+000	7.946274e+000	8.441588e+000	3.000000e+000	8.443008e+000
1.505229114425313e-004	2.849408e+000	7.916334e+000	8.441469e+000	3.000000e+000	8.442883e+000
1.508409476084906e-004	2.850702e+000	7.865448e+000	8.441262e+000	3.000000e+000	8.442684e+000
1.514770199404092e-004	2.853312e+000	7.763677e+000	8.440841e+000	3.000000e+000	8.442311e+000
1.535230520873320e-004	2.861880e+000	7.436312e+000	8.439404e+000	3.000000e+000	8.441070e+000
1.544938353213333e-004	2.866039e+000	7.280986e+000	8.438678e+000	3.000000e+000	8.440408e+000
1.611864751752017e-004	2.896666e+000	6.210164e+000	8.432330e+000	3.000000e+000	8.434398e+000
1.663046630479815e-004	2.922249e+000	5.391254e+000	8.424609e+000	3.000000e+000	8.427051e+000
1.749140198062808e-004	2.968340e+000	4.013757e+000	8.399378e+000	3.000000e+000	8.403029e+000
1.804301456429306e-004	2.999752e+000	3.131177e+000	8.198472e+000	3.000000e+000	8.211696e+000
1.834412523804727e-004	3.017775e+000	2.649400e+000	7.596330e+000	3.000000e+000	7.638231e+000
1.857252506013231e-004	3.031907e+000	2.283960e+000	6.387125e+000	3.000000e+000	6.486609e+000
1.887332850052548e-004	3.050925e+000	1.802674e+000	3.854251e+000	3.000000e+000	4.074351e+000
1.898546363359494e-004	3.058121e+000	1.623258e+000	2.657454e+000	3.000000e+000	2.934545e+000
1.900801406663138e-004	3.059583e+000	1.587178e+000	2.379972e+000	3.000000e+000	2.670276e+000
1.905951786469914e-004	3.062938e+000	1.504771e+000	1.708894e+000	3.000000e+000	2.031129e+000
1.909234598957559e-004	3.065084e+000	1.452246e+000	1.262264e+000	3.000000e+000	1.605660e+000
1.912146096169366e-004	3.066992e+000	1.405662e+000	8.531260e-001	3.000000e+000	1.215767e+000
1.913452698306365e-004	3.067850e+000	1.384757e+000	6.654679e-001	3.000000e+000	1.036870e+000
1.915241064002196e-004	3.069026e+000	1.356143e+000	4.045784e-001	3.000000e+000	7.880666e-001
1.917238279611502e-004	3.070342e+000	1.324188e+000	1.083694e-001	3.000000e+000	5.054046e-001
1.919071527871383e-004	3.071550e+000	1.294856e+000	-1.679383e-001	3.000000e+000	2.414448e-001
1.920282125291785e-004	3.072350e+000	1.275486e+000	-3.544033e-001	3.000000e+000	5.587073e-002
1.922075543182393e-004	3.073535e+000	1.246791e+000	-6.403618e-001	3.000000e+000	-2.652343e-001
1.923963706207497e-004	3.074784e+000	1.216581e+000	-9.534068e-001	3.000000e+000	-6.610420e-001
1.926750792470875e-004	3.076622e+000	1.171987e+000	-1.429682e+000	3.000000e+000	-1.286753e+000
1.930577495455586e-004	3.079125e+000	1.110760e+000	-2.099545e+000	3.000000e+000	-2.151848e+000
1.935087883622724e-004	3.082048e+000	1.038594e+000	-2.903134e+000	3.000000e+000	-3.161419e+000
1.935214115921714e-004	3.082129e+000	1.036574e+000	-2.925482e+000	3.000000e+000	-3.186043e+000
1.937445752077189e-004	3.083538e+000	1.000868e+000	-3.321210e+000	3.000000e+000	-3.564084e+000
1.939677388232663e-004	3.084928e+000	9.651618e-001	-3.723391e+000	3.000000e+000	-3.948040e+000
1.941909024388137e-004	3.086300e+000	9.294556e-001	-4.132026e+000	3.000000e+000	-4.337911e+000
1.944140660543612e-004	3.087653e+000	8.937495e-001	-4.547116e+000	3.000000e+000	-4.733696e+000
1.946372296699086e-004	3.088987e+000	8.580433e-001	-4.968659e+000	3.000000e+000	-5.135397e+000
1.948603932854560e-004	3.090303e+000	8.223371e-001	-5.396657e+000	3.000000e+000	-5.543012e+000
1.950835569010035e-004	3.091600e+000	7.866309e-001	-5.831108e+000	3.000000e+000	-5.956542e+000
1.958158197815425e-004	3.095738e+000	6.694688e-001	-7.083319e+000	3.000000e+000	-7.149384e+000
1.968306138776241e-004	3.101223e+000	5.071018e-001	-8.331838e+000	3.000000e+000	-8.338631e+000
1.969599389874895e-004	3.101896e+000	4.864098e-001	-8.397915e+000	3.000000e+000	-8.401577e+000
1.972185892072203e-004	3.103196e+000	4.450257e-001	-8.405762e+000	3.000000e+000	-8.409070e+000
1.977358896466818e-004	3.105707e+000	3.622577e-001	-8.414855e+000	3.000000e+000	-8.417760e+000
1.987704905256049e-004	3.110436e+000	1.967215e-001	-8.424152e+000	3.000000e+000	-8.426652e+000
2.000000000000002e-004	3.115741e+000	1.776357e-015	-8.430200e+000	3.000000e+000	-8.432438e+000
2.008606566320769e-004	3.118992e+000	1.377051e-001	-8.431905e+000	3.000000e+000	-8.434067e+000
2.018442642115931e-004	3.122292e+000	2.950823e-001	-8.433256e+000	3.000000e+000	-8.435359e+000
2.038114793706255e-004	3.127552e+000	6.098367e-001	-8.435032e+000	3.000000e+000	-8.437054e+000
2.077459096886903e-004	3.133725e+000	1.239346e+000	-8.436963e+000	3.000000e+000	-8.438894e+000
2.128205573371312e-004	3.132168e+000	2.051289e+000	-8.437239e+000	3.000000e+000	-8.439157e+000
2.222102217401223e-004	3.105028e+000	3.553636e+000	-8.431730e+000	3.000000e+000	-8.433910e+000
2.319758467401223e-004	3.050133e+000	5.116136e+000	-8.412306e+000	3.000000e+000	-8.415411e+000
2.376885037044853e-004	3.003828e+000	6.030160e+000	-8.282868e+000	3.000000e+000	-8.292137e+000
2.402343750000004e-004	2.978639e+000	6.437500e+000	-7.783118e+000	3.000000e+000	-7.816183e+000
2.420947865443186e-004	2.958250e+000	6.735166e+000	-6.638367e+000	3.000000e+000	-6.725939e+000
2.439300035119797e-004	2.936759e+000	7.028800e+000	-4.554272e+000	3.000000e+000	-4.741078e+000
2.461624814243087e-004	2.909211e+000	7.385997e+000	-1.006900e+000	3.000000e+000	-1.362613e+000
2.473713718166041e-004	2.893710e+000	7.579420e+000	1.350978e+000	3.000000e+000	8.829955e-001
2.475822192154097e-004	2.890931e+000	7.613155e+000	1.820420e+000	3.000000e+000	1.330086e+000
2.480039140130209e-004	2.885274e+000	7.680626e+000	2.838271e+000	3.000000e+000	2.299473e+000
2.488473036082434e-004	2.873827e+000	7.815568e+000	4.982804e+000	3.000000e+000	4.342028e+000
2.491898825137830e-004	2.869125e+000	7.870381e+000	5.896384e+000	3.000000e+000	5.212704e+000
2.493148421889213e-004	2.867393e+000	7.890375e+000	6.246867e+000	3.000000e+000	5.568266e+000
2.495647615391981e-004	2.863912e+000	7.930362e+000	6.973325e+000	3.000000e+000	6.373332e+000
2.496806351655336e-004	2.862293e+000	7.948902e+000	7.317529e+000	3.000000e+000	6.770416e+000
2.497682527473293e-004	2.861066e+000	7.962921e+000	7.581199e+000	3.000000e+000	7.074852e+000
2.498246121065505e-004	2.860276e+000	7.971938e+000	7.751695e+000	3.000000e+000	7.268964e+000
2.498735339246844e-004	2.859589e+000	7.979765e+000	7.900365e+000	3.000000e+000	7.436418e+000
2.499457777039001e-004	2.858575e+000	7.991324e+000	8.120637e+000	3.000000e+000	7.682717e+000
2.499750419289519e-004	2.858164e+000	7.996006e+000	8.208161e+000	3.000000e+000	7.779922e+000
2.500000000000004e-004	2.857813e+000	8.000000e+000	8.277865e+000	3.000000e+000	7.857677e+000
2.500074874213150e-004	2.857708e+000	7.998802e+000	8.292788e+000	3.000000e+000	7.874954e+000
2.500174706497344e-004	2.857567e+000	7.997205e+000	8.307820e+000	3.000000e+000	7.893095e+000
2.500374371065732e-004	2.857286e+000	7.994010e+000	8.328198e+000	3.000000e+000	7.919594e+000
2.500690025523915e-004	2.856842e+000	7.988960e+000	8.348901e+000	3.000000e+000	7.949786e+000
2.500867477360921e-004	2.856593e+000	7.986120e+000	8.356767e+000	3.000000e+000	7.962874e+000
2.501043176624753e-004	2.856345e+000	7.983309e+000	8.362416e+000	3.000000e+000	7.973578e+000
2.501274733906151e-004	2.856019e+000	7.979604e+000	8.368406e+000	3.000000e+000	7.986095e+000
2.501508806333936e-004	2.855690e+000	7.975859e+000	8.373384e+000	3.000000e+000	7.997524e+000
2.501743574752103e-004	2.855359e+000	7.972103e+000	8.377516e+000	3.000000e+000	8.007965e+000
2.502050713617965e-004	2.854927e+000	7.967188e+000	8.381978e+000	3.000000e+000	8.020422e+000
2.502545910238109e-004	2.854229e+000	7.959265e+000	8.387770e+000	3.000000e+000	8.038549e+000
2.503273839020970e-004	2.853202e+000	7.947618e+000	8.394337e+000	3.000000e+000	8.062110e+000
2.504379885864834e-004	2.851642e+000	7.929922e+000	8.401667e+000	3.000000e+000	8.092895e+000
2.506008167257406e-004	2.849343e+000	7.903869e+000	8.409190e+000	3.000000e+000	8.130421e+000
2.508503250764203e-004	2.845817e+000	7.863948e+000	8.416842e+000	3.000000e+000	8.175762e+000
2.512117004050653e-004	2.840705e+000	7.806128e+000	8.424124e+000	3.000000e+000	8.225732e+000
2.516789877663923e-004	2.834092e+000	7.731362e+000	8.430254e+000	3.000000e+000	8.297016e+000
2.523022208636439e-004	2.825277e+000	7.631645e+000	8.435679e+000	3.000000e+000	8.401620e+000
2.527577641707357e-004	2.818845e+000	7.558758e+000	8.438451e+000	3.000000e+000	8.437811e+000
2.532266383524114e-004	2.812241e+000	7.483738e+000	8.440559e+000	3.000000e+000	8.441197e+000
2.537102648300243e-004	2.805448e+000	7.406358e+000	8.442313e+000	3.000000e+000	8.443255e+000
2.543088629663595e-004	2.797067e+000	7.310582e+000	8.444101e+000	3.000000e+000	8.445208e+000
2.550068669486015e-004	2.787331e+000	7.198901e+000	8.445846e+000	3.000000e+000	8.447032e+000
2.558856222432237e-004	2.775131e+000	7.058300e+000	8.447699e+000	3.000000e+000	8.448905e+000
2.570177533892057e-004	2.759508e+000	6.877160e+000	8.449739e+000	3.000000e+000	8.450916e+000
2.584855747674320e-004	2.739411e+000	6.642308e+000	8.452027e+000	3.000000e+000	8.453133e+000
2.628329974531550e-004	2.680996e+000	5.946721e+000	8.457418e+000	3.000000e+000	8.458292e+000
2.662973196832739e-004	2.635654e+000	5.392429e+000	8.460788e+000	3.000000e+000	8.461506e+000
2.709901594225449e-004	2.576012e+000	4.641574e+000	8.464461e+000	3.000000e+000	8.465009e+000
2.775870471270312e-004	2.495752e+000	3.586072e+000	8.468373e+000	3.000000e+000	8.468741e+000
2.867079723760210e-004	2.389885e+000	2.126724e+000	8.472396e+000	3.000000e+000	8.472582e+000
2.902343750000005e-004	2.350813e+000	1.562500e+000	8.473549e+000	3.000000e+000	8.473683e+000
2.929471947520416e-004	2.321885e+000	1.128449e+000	8.474241e+000	3.000000e+000	8.474345e+000
2.945743604959180e-004	2.304945e+000	8.681023e-001	8.474604e+000	3.000000e+000	8.474692e+000
2.967456685122477e-004	2.282880e+000	5.206931e-001	8.475016e+000	3.000000e+000	8.475086e+000
3.000000000000004e-004	2.250400e+000	1.776357e-015	8.475556e+000	3.000000e+000	8.475605e+000
3.022780320414274e-004	2.228539e+000	3.644851e-001	8.475829e+000	3.000000e+000	8.475864e+000
3.047992345678644e-004	2.205132e+000	7.678775e-001	8.476044e+000	3.000000e+000	8.476067e+000
3.098416396207385e-004	2.160853e+000	1.574662e+000	8.476268e+000	3.000000e+000	8.476275e+000
3.196072646207385e-004	2.082359e+000	3.137162e+000	8.476389e+000	3.000000e+000	8.476381e+000
3.391385146207385e-004	1.952592e+000	6.262162e+000	8.476410e+000	3.000000e+000	8.476380e+000
3.456165584829521e-004	1.919945e+000	7.298649e+000	8.476411e+000	3.000000e+000	8.476376e+000
3.474737057244986e-004	1.911431e+000	7.595793e+000	8.476413e+000	3.000000e+000	8.476369e+000
3.487254008624140e-004	1.905931e+000	7.796064e+000	8.476413e+000	3.000000e+000	8.476353e+000
3.488686997552495e-004	1.905316e+000	7.818992e+000	8.476414e+000	3.000000e+000	8.476348e+000
3.491552975409204e-004	1.904104e+000	7.864848e+000	8.476414e+000	3.000000e+000	8.476331e+000
3.494569862245240e-004	1.902834e+000	7.913118e+000	8.476414e+000	3.000000e+000	8.476309e+000
3.495455190026819e-004	1.902464e+000	7.930790e+000	8.476414e+000	3.000000e+000	8.476300e+000
3.496340517808396e-004	1.902096e+000	7.946124e+000	8.476414e+000	3.000000e+000	8.476291e+000
3.497225845589975e-004	1.901728e+000	7.959120e+000	8.476414e+000	3.000000e+000	8.476282e+000
3.498111173371553e-004	1.901361e+000	7.969778e+000	8.476414e+000	3.000000e+000	8.476271e+000
3.498996501153131e-004	1.900995e+000	7.978098e+000	8.476414e+000	3.000000e+000	8.476260e+000
3.499881828934709e-004	1.900630e+000	7.984081e+000	8.476414e+000	3.000000e+000	8.476248e+000
3.500767156716287e-004	1.900265e+000	7.987725e+000	8.476414e+000	3.000000e+000	8.476235e+000
3.502633997639566e-004	1.899501e+000	7.957856e+000	8.476414e+000	3.000000e+000	8.476215e+000
3.504614178420335e-004	1.898696e+000	7.926173e+000	8.476414e+000	3.000000e+000	8.476205e+000
