time	V(vf1)	V(vf2)	V(vg1)	V(n002)
0.000000000000000e+000	7.999809e+000	3.999902e+000	0.000000e+000	2.967644e-005
8.312033946874354e-009	7.999888e+000	3.999902e+000	1.994888e-003	3.400923e-005
1.662406789374871e-008	7.999721e+000	3.999902e+000	3.989776e-003	2.493042e-005
2.493610184062306e-008	7.999307e+000	3.999902e+000	5.984664e-003	2.439999e-006
3.324813578749742e-008	7.998647e+000	3.999902e+000	7.979553e-003	-3.346202e-005
4.156016973437177e-008	7.997740e+000	3.999902e+000	9.974441e-003	-8.277564e-005
4.987220368124613e-008	7.996587e+000	3.999902e+000	1.196933e-002	-1.455009e-004
5.818423762812046e-008	7.995187e+000	3.999902e+000	1.396422e-002	-2.216377e-004
8.087155370743047e-008	7.989173e+000	3.999902e+000	1.940917e-002	-5.485930e-004
1.118365467392516e-007	7.976080e+000	3.999902e+000	2.684077e-002	-1.260546e-003
1.619475559076071e-007	7.941347e+000	3.999902e+000	3.886741e-002	-3.149175e-003
2.476379961529424e-007	7.835991e+000	3.999902e+000	5.943312e-002	-8.877767e-003
4.190188766436130e-007	7.412886e+000	3.999902e+000	1.005645e-001	-3.188248e-002
7.617806376249543e-007	5.746953e+000	3.999897e+000	1.828274e-001	-1.224455e-001
1.204603301203332e-006	2.279317e+000	3.999883e+000	2.891048e-001	-3.109142e-001
1.418079799207413e-006	-1.112044e-002	3.999869e+000	3.403392e-001	-4.353593e-001
1.634546596310930e-006	-2.714380e+000	3.999844e+000	3.922912e-001	-5.821602e-001
1.833788420604260e-006	-5.271108e+000	3.999810e+000	4.401092e-001	-7.208925e-001
2.045072216637524e-006	-7.334723e+000	3.999758e+000	4.908173e-001	-8.326005e-001
2.306468472676568e-006	-8.391228e+000	3.999676e+000	5.535524e-001	-8.891761e-001
2.358571062345335e-006	-8.430052e+000	3.999656e+000	5.660570e-001	-8.910576e-001
3.088007317708068e-006	-8.456079e+000	3.999218e+000	7.411218e-001	-8.849095e-001
3.921648752408333e-006	-8.466408e+000	3.998457e+000	9.411957e-001	-8.666596e-001
4.712483145993114e-006	-8.471172e+000	3.997481e+000	1.130996e+000	-8.348606e-001
5.806362599504270e-006	-8.474103e+000	3.995701e+000	1.393527e+000	-7.599508e-001
6.914328093619075e-006	-8.475444e+000	3.993408e+000	1.659439e+000	-6.382859e-001
8.226548143990937e-006	-8.476053e+000	3.990048e+000	1.974372e+000	-4.200297e-001
9.508150575818859e-006	-8.476281e+000	3.986073e+000	2.281956e+000	-1.087125e-001
1.107553651126007e-005	-8.476345e+000	3.980206e+000	2.658129e+000	4.462708e-001
1.319081838088697e-005	-8.476298e+000	3.970980e+000	3.165797e+000	1.456213e+000
1.427159469085045e-005	-8.476240e+000	3.965669e+000	3.425183e+000	2.106434e+000
1.491986514354039e-005	-8.476192e+000	3.962204e+000	3.580768e+000	2.564713e+000
1.554581523778970e-005	-8.475895e+000	3.958668e+000	3.730996e+000	3.058508e+000
1.619446254058807e-005	-8.472785e+000	3.954816e+000	3.886671e+000	3.624426e+000
1.679861620494262e-005	-8.463280e+000	3.951079e+000	4.031668e+000	4.196456e+000
1.740870863328436e-005	-8.427366e+000	3.947152e+000	4.178090e+000	4.823784e+000
1.766316096155746e-005	-7.707166e+000	3.945472e+000	4.239159e+000	5.137681e+000
1.793630917921507e-005	-5.392106e+000	3.943641e+000	4.304714e+000	5.567920e+000
1.811184369679637e-005	-3.274656e+000	3.942450e+000	4.346842e+000	5.884363e+000
1.836644808624456e-005	-4.031218e-002	3.940705e+000	4.407948e+000	6.362850e+000
1.887565686514094e-005	5.440423e+000	3.937190e+000	4.530158e+000	7.290650e+000
1.932397538755574e-005	8.411473e+000	3.934084e+000	4.637754e+000	8.025757e+000
1.933246372057256e-005	8.430541e+000	3.934026e+000	4.639791e+000	8.037946e+000
1.938339371867344e-005	8.434251e+000	3.933672e+000	4.652014e+000	8.106068e+000
1.945130038280795e-005	8.438243e+000	3.933201e+000	4.668312e+000	8.188818e+000
1.958711371107697e-005	8.444241e+000	3.932260e+000	4.700907e+000	8.293360e+000
1.985874036761502e-005	8.452107e+000	3.930378e+000	4.766098e+000	8.365372e+000
2.040199368069111e-005	8.461102e+000	3.926618e+000	4.896479e+000	8.396493e+000
2.124654731102679e-005	8.468397e+000	3.920784e+000	5.099171e+000	8.412655e+000
2.212488296532295e-005	8.472081e+000	3.914730e+000	5.309972e+000	8.420260e+000
2.323316225689914e-005	8.474185e+000	3.907114e+000	5.575959e+000	8.425408e+000
2.448018272106448e-005	8.475178e+000	3.898575e+000	5.875244e+000	8.429001e+000
2.618938597158432e-005	8.475622e+000	3.886926e+000	6.285453e+000	8.432415e+000
3.152436064334559e-005	8.475173e+000	3.850948e+000	7.565846e+000	8.439991e+000
3.291972919692907e-005	8.473310e+000	3.841623e+000	7.900735e+000	8.441541e+000
3.387549081058798e-005	8.469496e+000	3.835270e+000	8.130117e+000	8.442390e+000
3.455575320776762e-005	8.463851e+000	3.830763e+000	8.293381e+000	8.442824e+000
3.526106152488562e-005	8.452874e+000	3.826102e+000	8.462655e+000	8.443005e+000
3.596060844681473e-005	8.427875e+000	3.821490e+000	8.630546e+000	8.442491e+000
3.647145046186206e-005	7.862447e+000	3.818128e+000	8.753148e+000	8.416032e+000
3.679595975494756e-005	6.263780e+000	3.815995e+000	8.831030e+000	8.340161e+000
3.708980590601720e-005	3.537531e+000	3.814060e+000	8.901553e+000	8.210540e+000
3.727860178664706e-005	1.365896e+000	3.812814e+000	8.946864e+000	8.107250e+000
3.748230313245443e-005	-1.127198e+000	3.811462e+000	8.995752e+000	7.988665e+000
3.768524540333111e-005	-3.630116e+000	3.810107e+000	9.044459e+000	7.869617e+000
3.790617015206245e-005	-5.791411e+000	3.808613e+000	9.097481e+000	7.766870e+000
3.834801964952513e-005	-8.311358e+000	3.805592e+000	9.203525e+000	7.647273e+000
3.840502706383617e-005	-8.432092e+000	3.805198e+000	9.217207e+000	7.641581e+000
3.966326534949929e-005	-8.451020e+000	3.796091e+000	9.519184e+000	7.641883e+000
4.092150363516241e-005	-8.465698e+000	3.786343e+000	9.821160e+000	7.642371e+000
4.217974192082554e-005	-8.476128e+000	3.775953e+000	1.012314e+001	7.643046e+000
4.343798020648866e-005	-8.482309e+000	3.764922e+000	1.042511e+001	7.643906e+000
4.469621849215178e-005	-8.484241e+000	3.753248e+000	1.072709e+001	7.644953e+000
4.595445677781490e-005	-8.481923e+000	3.740933e+000	1.102907e+001	7.646186e+000
4.721269506347802e-005	-8.475357e+000	3.727976e+000	1.133105e+001	7.647605e+000
5.000000000000000e-005	-8.475417e+000	3.697914e+000	1.200000e+001	7.650101e+000
5.418095740478298e-005	-8.475419e+000	3.645842e+000	1.099657e+001	7.653721e+000
5.612517888440841e-005	-7.031878e+000	3.619702e+000	1.052996e+001	7.724102e+000
5.747706221197614e-005	-3.137173e+000	3.600811e+000	1.020551e+001	7.910709e+000
5.764820962015927e-005	-2.041552e+000	3.598366e+000	1.016443e+001	7.963029e+000
5.799050443652554e-005	4.384297e-001	3.593423e+000	1.008228e+001	8.081412e+000
5.867509406925806e-005	3.694825e+000	3.583499e+000	9.917977e+000	8.237019e+000
5.941689377342310e-005	5.582323e+000	3.572712e+000	9.739945e+000	8.327453e+000
6.033423918561121e-005	6.542461e+000	3.559348e+000	9.519783e+000	8.373828e+000
6.155865239063763e-005	6.999310e+000	3.541502e+000	9.225924e+000	8.396430e+000
6.219484777480420e-005	7.071394e+000	3.532231e+000	9.073236e+000	8.400290e+000
6.381262156560106e-005	7.124247e+000	3.508669e+000	8.684971e+000	8.403847e+000
6.458360129094609e-005	7.175214e+000	3.497449e+000	8.499936e+000	8.406745e+000
6.538833072397577e-005	7.325966e+000	3.485745e+000	8.306801e+000	8.414400e+000
6.615503114904051e-005	7.720312e+000	3.474606e+000	8.122792e+000	8.433617e+000
6.695826457715752e-005	8.387309e+000	3.462948e+000	7.930017e+000	8.465825e+000
6.706128637856966e-005	8.436700e+000	3.461454e+000	7.905291e+000	8.468233e+000
6.726732998139393e-005	8.444110e+000	3.458470e+000	7.855841e+000	8.468694e+000
6.767941718704247e-005	8.453575e+000	3.452508e+000	7.756940e+000	8.469357e+000
6.848855320610064e-005	8.464573e+000	3.440822e+000	7.562747e+000	8.470286e+000
6.903815010032967e-005	8.468801e+000	3.432900e+000	7.430844e+000	8.470756e+000
6.980084336519263e-005	8.471735e+000	3.421934e+000	7.247797e+000	8.471252e+000
7.064583462831699e-005	8.473439e+000	3.409821e+000	7.045000e+000	8.471711e+000
7.207981234170570e-005	8.474832e+000	3.389342e+000	6.700845e+000	8.472380e+000
7.351832487243490e-005	8.475433e+000	3.368906e+000	6.355602e+000	8.472963e+000
7.829456384333375e-005	8.475889e+000	3.301889e+000	5.209305e+000	8.474467e+000
8.300010095787429e-005	8.476049e+000	3.237280e+000	4.079976e+000	8.475386e+000
9.036920763535898e-005	8.476281e+000	3.138748e+000	2.311390e+000	8.476070e+000
1.000000000000000e-004	8.476581e+000	3.013178e+000	0.000000e+000	8.476303e+000
1.028892377093923e-004	8.476559e+000	2.977184e+000	6.934171e-001	8.476286e+000
1.242118135469615e-004	8.475900e+000	2.729779e+000	5.810835e+000	8.476284e+000
1.302652397850922e-004	8.475703e+000	2.665186e+000	7.263658e+000	8.476283e+000
1.316187405402624e-004	8.475585e+000	2.651261e+000	7.588498e+000	8.476279e+000
1.324115445580939e-004	8.475192e+000	2.643190e+000	7.778771e+000	8.476262e+000
1.330564441502622e-004	8.474015e+000	2.636673e+000	7.933547e+000	8.476207e+000
1.338515399815964e-004	8.470757e+000	2.628689e+000	8.124370e+000	8.476052e+000
1.345492905946665e-004	8.465319e+000	2.621726e+000	8.291830e+000	8.475794e+000
1.353426858558323e-004	8.453938e+000	2.613858e+000	8.482244e+000	8.475253e+000
1.360349308517548e-004	8.411124e+000	2.607036e+000	8.648383e+000	8.473215e+000
1.367217535416442e-004	7.251836e+000	2.600304e+000	8.813221e+000	8.418002e+000
1.371175122946045e-004	4.682753e+000	2.596438e+000	8.908203e+000	8.295646e+000
1.373680880435761e-004	1.980093e+000	2.593993e+000	8.968341e+000	8.166929e+000
1.375907119865434e-004	-7.140955e-001	2.591818e+000	9.021770e+000	8.038618e+000
1.377692585184318e-004	-2.918385e+000	2.590068e+000	9.064622e+000	7.933641e+000
1.379630087426296e-004	-5.029733e+000	2.588159e+000	9.111122e+000	7.833092e+000
1.383505091910251e-004	-8.375375e+000	2.584322e+000	9.204123e+000	7.673769e+000
1.383596636345554e-004	-8.411942e+000	2.584231e+000	9.206319e+000	7.672028e+000
1.393987546409336e-004	-8.439691e+000	2.573656e+000	9.455701e+000	7.670741e+000
1.404378456473119e-004	-8.461204e+000	2.562716e+000	9.705083e+000	7.669744e+000
1.414769366536901e-004	-8.476483e+000	2.551411e+000	9.954465e+000	7.669038e+000
1.425160276600684e-004	-8.485528e+000	2.539740e+000	1.020385e+001	7.668622e+000
1.435551186664466e-004	-8.488337e+000	2.527704e+000	1.045323e+001	7.668496e+000
1.445942096728248e-004	-8.484913e+000	2.515302e+000	1.070261e+001	7.668660e+000
1.456333006792031e-004	-8.475253e+000	2.502535e+000	1.095199e+001	7.669114e+000
1.476498604290674e-004	-7.701126e+000	2.476801e+000	1.143597e+001	7.705985e+000
1.500000000000002e-004	-5.122159e+000	2.445668e+000	1.200000e+001	7.828810e+000
1.502350139570935e-004	-3.296918e+000	2.442426e+000	1.194360e+001	7.915738e+000
1.507050418712800e-004	-5.330350e-001	2.435922e+000	1.183079e+001	8.047365e+000
1.516450976996532e-004	2.677583e+000	2.422863e+000	1.160518e+001	8.200255e+000
1.525754797867028e-004	4.103941e+000	2.409906e+000	1.138188e+001	8.268168e+000
1.535849185231049e-004	4.576204e+000	2.395832e+000	1.113962e+001	8.290647e+000
1.553004164797992e-004	4.742711e+000	2.371919e+000	1.072790e+001	8.298566e+000
1.570108856455994e-004	4.730489e+000	2.348094e+000	1.031739e+001	8.297981e+000
1.627299037939248e-004	4.573199e+000	2.268590e+000	8.944823e+000	8.290498e+000
1.636447065436781e-004	4.577117e+000	2.255898e+000	8.725270e+000	8.290687e+000
1.643621210179854e-004	4.599952e+000	2.245948e+000	8.553091e+000	8.291776e+000
1.651787803691792e-004	4.662506e+000	2.234629e+000	8.357093e+000	8.294756e+000
1.659864424417886e-004	4.863176e+000	2.223443e+000	8.163254e+000	8.304315e+000
1.667382654252615e-004	5.844232e+000	2.213044e+000	7.982816e+000	8.351039e+000
1.676403158406823e-004	8.406329e+000	2.200589e+000	7.766324e+000	8.473062e+000
1.676553710354459e-004	8.432888e+000	2.200382e+000	7.762711e+000	8.474326e+000
1.676854814249732e-004	8.434761e+000	2.199967e+000	7.755485e+000	8.474415e+000
1.677457022040278e-004	8.438051e+000	2.199139e+000	7.741032e+000	8.474571e+000
1.678661437621370e-004	8.443514e+000	2.197483e+000	7.712125e+000	8.474830e+000
1.680096948445693e-004	8.448458e+000	2.195511e+000	7.677673e+000	8.475063e+000
1.682967970094339e-004	8.455218e+000	2.191576e+000	7.608769e+000	8.475383e+000
1.687389705063038e-004	8.461947e+000	2.185533e+000	7.502647e+000	8.475699e+000
1.692191170403725e-004	8.466260e+000	2.178998e+000	7.387412e+000	8.475903e+000
1.701794101085099e-004	8.470928e+000	2.166003e+000	7.156941e+000	8.476123e+000
1.710928707248530e-004	8.473244e+000	2.153735e+000	6.937711e+000	8.476233e+000
1.724345951915602e-004	8.474733e+000	2.135885e+000	6.615697e+000	8.476303e+000
1.737822951948482e-004	8.475346e+000	2.118171e+000	6.292249e+000	8.476335e+000
1.758975842070653e-004	8.475685e+000	2.090803e+000	5.784580e+000	8.476354e+000
1.783760112772623e-004	8.475848e+000	2.059472e+000	5.189757e+000	8.476365e+000
1.814651525233677e-004	8.475953e+000	2.021204e+000	4.448363e+000	8.476375e+000
1.845542937694731e-004	8.476056e+000	1.984063e+000	3.706970e+000	8.476385e+000
1.876434350155785e-004	8.476157e+000	1.948049e+000	2.965576e+000	8.476395e+000
1.907325762616840e-004	8.476256e+000	1.913163e+000	2.224182e+000	8.476404e+000
1.938217175077894e-004	8.476354e+000	1.879404e+000	1.482788e+000	8.476413e+000
1.969108587538948e-004	8.476450e+000	1.846772e+000	7.413939e-001	8.476422e+000
2.000000000000002e-004	8.476544e+000	1.815268e+000	3.552714e-015	8.476430e+000
2.033378781702149e-004	8.476519e+000	1.783000e+000	8.010908e-001	8.476433e+000
2.147820318966655e-004	8.476170e+000	1.684636e+000	3.547688e+000	8.476429e+000
2.304427259477307e-004	8.475663e+000	1.572676e+000	7.306254e+000	8.476418e+000
2.317644907177071e-004	8.475514e+000	1.564870e+000	7.623478e+000	8.476413e+000
2.325379909202294e-004	8.474969e+000	1.560438e+000	7.809118e+000	8.476387e+000
2.332802000854876e-004	8.473218e+000	1.556277e+000	7.987248e+000	8.476304e+000
2.341076444427387e-004	8.468858e+000	1.551728e+000	8.185835e+000	8.476097e+000
2.349254945063363e-004	8.460652e+000	1.547320e+000	8.382118e+000	8.475707e+000
2.356811258306783e-004	8.444014e+000	1.543329e+000	8.563470e+000	8.474916e+000
2.364476304166672e-004	7.798687e+000	1.539354e+000	8.747432e+000	8.444180e+000
2.369302496762348e-004	5.715713e+000	1.536886e+000	8.863260e+000	8.344976e+000
2.373010992717827e-004	2.342549e+000	1.535004e+000	8.952264e+000	8.184326e+000
2.375229169360349e-004	-2.676634e-001	1.533880e+000	9.005500e+000	8.060015e+000
2.377741879565341e-004	-3.368938e+000	1.532602e+000	9.065805e+000	7.912318e+000
2.380468971124169e-004	-6.339488e+000	1.531203e+000	9.131255e+000	7.770852e+000
2.383088755074029e-004	-8.267987e+000	1.529847e+000	9.194130e+000	7.679017e+000
2.383639680067120e-004	-8.417379e+000	1.529560e+000	9.207353e+000	7.671905e+000
2.395897042421096e-004	-8.443280e+000	1.522863e+000	9.501529e+000	7.670707e+000
2.408154404775071e-004	-8.463311e+000	1.515760e+000	9.795706e+000	7.669781e+000
2.420411767129047e-004	-8.477474e+000	1.508251e+000	1.008988e+001	7.669128e+000
2.432669129483022e-004	-8.485769e+000	1.500336e+000	1.038406e+001	7.668746e+000
2.444926491836998e-004	-8.488194e+000	1.492014e+000	1.067824e+001	7.668637e+000
2.457183854190973e-004	-8.484751e+000	1.483287e+000	1.097241e+001	7.668800e+000
2.469441216544949e-004	-8.475439e+000	1.474154e+000	1.126659e+001	7.669235e+000
2.500000000000004e-004	-8.475480e+000	1.449415e+000	1.200000e+001	7.669236e+000
2.522074023109273e-004	-8.476037e+000	1.429612e+000	1.147022e+001	7.669212e+000
2.544148046218541e-004	-8.476292e+000	1.408559e+000	1.094045e+001	7.669202e+000
2.566222069327809e-004	-8.476246e+000	1.386256e+000	1.041067e+001	7.669207e+000
2.588296092437077e-004	-8.475899e+000	1.362702e+000	9.880894e+000	7.669227e+000
2.610370115546345e-004	-8.475251e+000	1.337899e+000	9.351118e+000	7.669261e+000
2.632444138655613e-004	-8.474301e+000	1.311846e+000	8.821341e+000	7.669309e+000
2.654518161764882e-004	-8.473050e+000	1.284543e+000	8.291564e+000	7.669372e+000
2.662425215173165e-004	-8.058457e+000	1.274362e+000	8.101795e+000	7.689119e+000
2.666493349357493e-004	-6.775850e+000	1.269070e+000	8.004160e+000	7.750206e+000
2.668881000519981e-004	-5.132329e+000	1.265941e+000	7.946856e+000	7.828482e+000
2.670208485337670e-004	-4.088111e+000	1.264196e+000	7.914996e+000	7.878214e+000
2.671013690520312e-004	-3.532953e+000	1.263135e+000	7.895671e+000	7.904653e+000
2.671658923145396e-004	-3.123913e+000	1.262284e+000	7.880186e+000	7.924133e+000
2.672271484281355e-004	-2.762803e+000	1.261476e+000	7.865484e+000	7.941331e+000
2.673211215201012e-004	-2.259158e+000	1.260235e+000	7.842931e+000	7.965316e+000
2.675090677040325e-004	-1.398765e+000	1.257749e+000	7.797824e+000	8.006289e+000
2.678849600718950e-004	-3.421500e-002	1.252770e+000	7.707610e+000	8.071270e+000
2.683760463551454e-004	1.587263e+000	1.246257e+000	7.589749e+000	8.148484e+000
2.689015774625072e-004	4.201114e+000	1.239287e+000	7.463622e+000	8.272961e+000
2.694552551291122e-004	8.377254e+000	1.231950e+000	7.330739e+000	8.471843e+000
2.694637256783850e-004	8.414278e+000	1.231838e+000	7.328706e+000	8.473606e+000
2.694806667769304e-004	8.416770e+000	1.231614e+000	7.324640e+000	8.473724e+000
2.695145489740214e-004	8.421089e+000	1.231167e+000	7.316508e+000	8.473928e+000
2.695823133682032e-004	8.427721e+000	1.230272e+000	7.300245e+000	8.474241e+000
2.697178421565670e-004	8.436732e+000	1.228486e+000	7.267718e+000	8.474666e+000
2.699729277320703e-004	8.446949e+000	1.225133e+000	7.206497e+000	8.475143e+000
2.704830988830769e-004	8.457975e+000	1.218461e+000	7.084056e+000	8.475657e+000
2.712373435197920e-004	8.466290e+000	1.208667e+000	6.903038e+000	8.476040e+000
2.720531119862091e-004	8.470686e+000	1.198172e+000	6.707253e+000	8.476240e+000
2.730513053298564e-004	8.473269e+000	1.185477e+000	6.467687e+000	8.476358e+000
2.741950670860879e-004	8.474627e+000	1.171134e+000	6.193184e+000	8.476421e+000
2.756955980666666e-004	8.475347e+000	1.152647e+000	5.833056e+000	8.476457e+000
2.775631173907731e-004	8.475691e+000	1.130177e+000	5.384852e+000	8.476475e+000
2.802226118255599e-004	8.475874e+000	1.099241e+000	4.746573e+000	8.476487e+000
2.909523625830524e-004	8.476233e+000	9.875437e-001	2.171433e+000	8.476519e+000
3.000000000000004e-004	8.476517e+000	9.038561e-001	3.552714e-015	8.476542e+000
3.027142912250848e-004	8.476500e+000	8.825939e-001	6.514299e-001	8.476544e+000
3.063333461918640e-004	8.476408e+000	8.565969e-001	1.520003e+000	8.476543e+000
3.135714561254224e-004	8.476181e+000	8.116498e-001	3.257149e+000	8.476539e+000
3.233370811254224e-004	8.475866e+000	7.622367e-001	5.600900e+000	8.476530e+000
3.290671735942069e-004	8.475681e+000	7.393122e-001	6.976121e+000	8.476524e+000
3.302878767192069e-004	8.475582e+000	7.354594e-001	7.269090e+000	8.476520e+000
3.323055717783630e-004	8.474776e+000	7.299563e-001	7.753337e+000	8.476482e+000
3.332757365463116e-004	8.472866e+000	7.275101e-001	7.986177e+000	8.476392e+000
3.341904240653981e-004	8.468327e+000	7.253878e-001	8.205702e+000	8.476176e+000
3.348422859124113e-004	8.462076e+000	7.239684e-001	8.362148e+000	8.475879e+000
3.355478536969066e-004	8.449475e+000	7.225230e-001	8.531485e+000	8.475279e+000
3.361912918047807e-004	8.405171e+000	7.212762e-001	8.685910e+000	8.473168e+000
3.367124566821972e-004	7.519096e+000	7.203159e-001	8.810989e+000	8.430967e+000
3.370361023356823e-004	5.456283e+000	7.197420e-001	8.888664e+000	8.332723e+000
3.372992429261684e-004	2.696995e+000	7.192856e-001	8.951818e+000	8.201308e+000
3.374905910771851e-004	4.175784e-001	7.189561e-001	8.997742e+000	8.092751e+000
3.376970701289736e-004	-2.131738e+000	7.185996e-001	9.047297e+000	7.971340e+000
3.378968604734932e-004	-4.465586e+000	7.182495e-001	9.095246e+000	7.860194e+000
3.382668721439240e-004	-8.335633e+000	7.175903e-001	9.184050e+000	7.675893e+000
3.382784350086250e-004	-8.394982e+000	7.175694e-001	9.186825e+000	7.673067e+000
3.387426989143039e-004	-8.425468e+000	7.166827e-001	9.298248e+000	7.671637e+000
3.392069628199829e-004	-8.449476e+000	7.157436e-001	9.409671e+000	7.670512e+000
3.396712267256618e-004	-8.467004e+000	7.147520e-001	9.521094e+000	7.669693e+000
3.401354906313407e-004	-8.478054e+000	7.137078e-001	9.632518e+000	7.669179e+000
