time	V(vin)	V(vout)
0.000000000000000e+000	-1.000000e+000	8.476793e+000
9.999999824516700e-015	-1.000000e+000	8.476793e+000
1.999999964903340e-014	-1.000000e+000	8.476793e+000
3.999999929806680e-014	-1.000000e+000	8.476793e+000
7.999999859613360e-014	-1.000000e+000	8.476793e+000
1.599999971922672e-013	-1.000000e+000	8.476793e+000
3.199999943845344e-013	-1.000000e+000	8.476793e+000
6.399999887690688e-013	-1.000000e+000	8.476793e+000
1.000000000000000e-012	-1.000000e+000	8.476793e+000
2.000000000000000e-012	1.000000e+000	8.477184e+000
6.096472309745296e-005	1.000000e+000	8.477168e+000
1.219294441949059e-004	1.000000e+000	8.476320e+000
1.828941652923589e-004	1.000000e+000	8.474640e+000
2.438588863898118e-004	1.000000e+000	8.472130e+000
3.048236074872648e-004	1.000000e+000	8.468788e+000
3.657883285847177e-004	1.000000e+000	8.464614e+000
4.267530496821705e-004	1.000000e+000	8.459610e+000
4.372169000132890e-004	1.000000e+000	8.458643e+000
4.476807503444075e-004	1.000000e+000	8.457637e+000
4.581446006755260e-004	1.000000e+000	8.456593e+000
4.686084510066445e-004	1.000000e+000	8.455509e+000
4.790723013377630e-004	1.000000e+000	8.454386e+000
4.895361516688815e-004	1.000000e+000	8.453225e+000
5.000000020000000e-004	1.000000e+000	8.452024e+000
5.000000030000000e-004	-1.000000e+000	8.450978e+000
5.132356586262140e-004	-1.000000e+000	8.452278e+000
5.264713142524282e-004	-1.000000e+000	8.453458e+000
5.397069698786422e-004	-1.000000e+000	8.454518e+000
5.529426255048563e-004	-1.000000e+000	8.455458e+000
5.661782811310703e-004	-1.000000e+000	8.456278e+000
5.794139367572845e-004	-1.000000e+000	8.456979e+000
5.926495923834985e-004	-1.000000e+000	8.457560e+000
6.508425079001415e-004	-1.000000e+000	8.460231e+000
7.090354234167847e-004	-1.000000e+000	8.462620e+000
7.672283389334278e-004	-1.000000e+000	8.464727e+000
8.254212544500708e-004	-1.000000e+000	8.466553e+000
8.836141699667139e-004	-1.000000e+000	8.468096e+000
9.418070854833571e-004	-1.000000e+000	8.469357e+000
1.000000001000000e-003	-1.000000e+000	8.470336e+000
1.000000002000000e-003	1.000000e+000	8.470838e+000
1.049245972445300e-003	1.000000e+000	8.468163e+000
1.098491942890599e-003	1.000000e+000	8.464585e+000
1.147737913335898e-003	1.000000e+000	8.460105e+000
1.196983883781198e-003	1.000000e+000	8.454722e+000
1.246229854226497e-003	1.000000e+000	8.448436e+000
1.295475824671797e-003	1.000000e+000	8.441248e+000
1.344721795117096e-003	1.000000e+000	8.433157e+000
1.357277598688524e-003	1.000000e+000	8.430571e+000
1.369833402259953e-003	1.000000e+000	8.427654e+000
1.382389205831382e-003	1.000000e+000	8.424406e+000
1.394945009402810e-003	1.000000e+000	8.420826e+000
1.407500812974239e-003	1.000000e+000	8.416914e+000
1.420056616545667e-003	1.000000e+000	8.412671e+000
1.432612420117096e-003	1.000000e+000	8.408096e+000
1.444331170117096e-003	1.000000e+000	8.403192e+000
1.456049920117096e-003	1.000000e+000	8.397718e+000
1.461909295117096e-003	1.000000e+000	8.394745e+000
1.467768670117096e-003	1.000000e+000	8.391601e+000
1.473628045117096e-003	1.000000e+000	8.388276e+000
1.479487420117096e-003	1.000000e+000	8.384765e+000
1.485346795117096e-003	1.000000e+000	8.381062e+000
1.491206170117096e-003	1.000000e+000	8.377186e+000
1.494140627000000e-003	1.000000e+000	8.375158e+000
1.500000002000000e-003	1.000000e+000	8.370988e+000
1.500000002100000e-003	7.999998e-001	8.368632e+000
1.500000002300000e-003	3.999999e-001	8.362970e+000
1.500000002700000e-003	-3.999999e-001	8.347567e+000
1.500000003000000e-003	-1.000000e+000	8.332134e+000
1.500004615773847e-003	-1.000000e+000	8.332478e+000
1.500009228547695e-003	-1.000000e+000	8.332896e+000
1.500013841321542e-003	-1.000000e+000	8.333389e+000
1.500018454095390e-003	-1.000000e+000	8.333957e+000
1.500023066869237e-003	-1.000000e+000	8.334600e+000
1.500027679643084e-003	-1.000000e+000	8.335318e+000
1.500032292416932e-003	-1.000000e+000	8.336110e+000
1.500060979531107e-003	-1.000000e+000	8.340739e+000
1.500079394371652e-003	-1.000000e+000	8.343440e+000
1.500099816830634e-003	-1.000000e+000	8.346061e+000
1.500126878328974e-003	-1.000000e+000	8.348973e+000
1.500159858151501e-003	-1.000000e+000	8.351826e+000
1.500210158455090e-003	-1.000000e+000	8.355062e+000
1.500306645617138e-003	-1.000000e+000	8.359463e+000
1.500397319259541e-003	-1.000000e+000	8.362348e+000
1.500492764519821e-003	-1.000000e+000	8.364425e+000
1.500604384200710e-003	-1.000000e+000	8.366104e+000
1.500777925201502e-003	-1.000000e+000	8.367882e+000
1.500944694045159e-003	-1.000000e+000	8.369007e+000
1.501185877593181e-003	-1.000000e+000	8.370028e+000
1.501441636831162e-003	-1.000000e+000	8.370709e+000
1.501807094326864e-003	-1.000000e+000	8.371313e+000
1.502227823611498e-003	-1.000000e+000	8.371778e+000
1.503628270466435e-003	-1.000000e+000	8.372856e+000
1.507205009660191e-003	-1.000000e+000	8.375283e+000
1.511786201740617e-003	-1.000000e+000	8.378271e+000
1.517645576740617e-003	-1.000000e+000	8.381939e+000
1.523504951740617e-003	-1.000000e+000	8.385425e+000
1.529364326740617e-003	-1.000000e+000	8.388723e+000
1.535223701740617e-003	-1.000000e+000	8.391842e+000
1.546942451740617e-003	-1.000000e+000	8.397570e+000
1.558661201740617e-003	-1.000000e+000	8.402679e+000
1.576239326740617e-003	-1.000000e+000	8.409348e+000
1.593817451740617e-003	-1.000000e+000	8.415026e+000
1.608884416026331e-003	-1.000000e+000	8.419107e+000
1.623951380312046e-003	-1.000000e+000	8.422864e+000
1.639018344597760e-003	-1.000000e+000	8.426297e+000
1.654085308883474e-003	-1.000000e+000	8.429407e+000
1.669152273169188e-003	-1.000000e+000	8.432192e+000
1.684219237454903e-003	-1.000000e+000	8.434654e+000
1.699286201740617e-003	-1.000000e+000	8.436791e+000
1.742245315920529e-003	-1.000000e+000	8.441874e+000
1.785204430100441e-003	-1.000000e+000	8.446395e+000
1.828163544280353e-003	-1.000000e+000	8.450353e+000
1.871122658460264e-003	-1.000000e+000	8.453748e+000
1.914081772640176e-003	-1.000000e+000	8.456581e+000
1.957040886820088e-003	-1.000000e+000	8.458851e+000
2.000000001000000e-003	-1.000000e+000	8.460559e+000
2.000000002000000e-003	1.000000e+000	8.461287e+000
2.030830793873870e-003	1.000000e+000	8.458457e+000
2.061661585747740e-003	1.000000e+000	8.455149e+000
2.092492377621609e-003	1.000000e+000	8.451362e+000
2.123323169495479e-003	1.000000e+000	8.447097e+000
2.154153961369349e-003	1.000000e+000	8.442353e+000
2.184984753243218e-003	1.000000e+000	8.437131e+000
2.215815545117088e-003	1.000000e+000	8.431430e+000
2.227534295117088e-003	1.000000e+000	8.428887e+000
2.239253045117087e-003	1.000000e+000	8.426037e+000
2.250971795117087e-003	1.000000e+000	8.422880e+000
2.262690545117086e-003	1.000000e+000	8.419416e+000
2.274409295117086e-003	1.000000e+000	8.415646e+000
2.286128045117086e-003	1.000000e+000	8.411569e+000
2.297846795117085e-003	1.000000e+000	8.407186e+000
2.309565545117085e-003	1.000000e+000	8.402176e+000
2.315424920117085e-003	1.000000e+000	8.399458e+000
2.321284295117084e-003	1.000000e+000	8.396585e+000
2.327143670117084e-003	1.000000e+000	8.393545e+000
2.333003045117084e-003	1.000000e+000	8.390332e+000
2.338862420117084e-003	1.000000e+000	8.386936e+000
2.344721795117083e-003	1.000000e+000	8.383351e+000
2.350581170117083e-003	1.000000e+000	8.379571e+000
2.356440545117083e-003	1.000000e+000	8.375595e+000
2.362299920117083e-003	1.000000e+000	8.371423e+000
2.368159295117083e-003	1.000000e+000	8.367060e+000
2.374018670117082e-003	1.000000e+000	8.362512e+000
2.379878045117082e-003	1.000000e+000	8.357790e+000
2.385737420117082e-003	1.000000e+000	8.352907e+000
2.391596795117082e-003	1.000000e+000	8.347878e+000
2.397456170117082e-003	1.000000e+000	8.342718e+000
2.403315545117081e-003	1.000000e+000	8.337442e+000
2.409174920117081e-003	1.000000e+000	8.332067e+000
2.415034295117081e-003	1.000000e+000	8.326606e+000
2.420893670117081e-003	1.000000e+000	8.321073e+000
2.426753045117081e-003	1.000000e+000	8.315479e+000
2.432612420117080e-003	1.000000e+000	8.309835e+000
2.438471795117080e-003	1.000000e+000	8.304151e+000
2.444331170117080e-003	1.000000e+000	8.298432e+000
2.450190545117080e-003	1.000000e+000	8.292686e+000
2.461909295117079e-003	1.000000e+000	8.281132e+000
2.473628045117079e-003	1.000000e+000	8.269520e+000
2.477395467528925e-003	1.000000e+000	8.265776e+000
2.481162889940771e-003	1.000000e+000	8.262031e+000
2.484930312352617e-003	1.000000e+000	8.258283e+000
2.488697734764462e-003	1.000000e+000	8.254532e+000
2.492465157176308e-003	1.000000e+000	8.250780e+000
2.496232579588154e-003	1.000000e+000	8.247024e+000
2.500000002000000e-003	1.000000e+000	8.243267e+000
2.500000002100000e-003	8.000003e-001	8.218133e+000
2.500000002300000e-003	3.999999e-001	8.166730e+000
2.500000003000000e-003	-1.000000e+000	7.984412e+000
2.500002998919988e-003	-1.000000e+000	7.985918e+000
2.500005994839976e-003	-1.000000e+000	7.988499e+000
2.500008990759964e-003	-1.000000e+000	7.992157e+000
2.500011986679952e-003	-1.000000e+000	7.996891e+000
2.500014982599940e-003	-1.000000e+000	8.002701e+000
2.500017978519928e-003	-1.000000e+000	8.009587e+000
2.500020974439916e-003	-1.000000e+000	8.017549e+000
2.500031385187809e-003	-1.000000e+000	8.045987e+000
2.500056331845837e-003	-1.000000e+000	8.121093e+000
2.500070851224004e-003	-1.000000e+000	8.159742e+000
2.500084636006784e-003	-1.000000e+000	8.189654e+000
2.500100723199043e-003	-1.000000e+000	8.215546e+000
2.500116490779838e-003	-1.000000e+000	8.232426e+000
2.500135236717461e-003	-1.000000e+000	8.243677e+000
2.500158069538735e-003	-1.000000e+000	8.250152e+000
2.500169669756752e-003	-1.000000e+000	8.251255e+000
2.500177867137919e-003	-1.000000e+000	8.251200e+000
2.500186166323685e-003	-1.000000e+000	8.250803e+000
2.500196064651615e-003	-1.000000e+000	8.250093e+000
2.500207389850540e-003	-1.000000e+000	8.249129e+000
2.500219656596684e-003	-1.000000e+000	8.248034e+000
2.500232682753239e-003	-1.000000e+000	8.246930e+000
2.500246860915782e-003	-1.000000e+000	8.245880e+000
2.500261918132592e-003	-1.000000e+000	8.244984e+000
2.500278180634888e-003	-1.000000e+000	8.244271e+000
2.500295725854104e-003	-1.000000e+000	8.243775e+000
2.500318399356358e-003	-1.000000e+000	8.243440e+000
2.500345177075278e-003	-1.000000e+000	8.243304e+000
2.500369733212342e-003	-1.000000e+000	8.243322e+000
2.500426527984933e-003	-1.000000e+000	8.243501e+000
2.500461362024145e-003	-1.000000e+000	8.243587e+000
2.500505340577565e-003	-1.000000e+000	8.243655e+000
2.506922695458021e-003	-1.000000e+000	8.250055e+000
2.513340050338479e-003	-1.000000e+000	8.256443e+000
2.519757405218936e-003	-1.000000e+000	8.262818e+000
2.526174760099393e-003	-1.000000e+000	8.269182e+000
2.532592114979850e-003	-1.000000e+000	8.275534e+000
2.539009469860307e-003	-1.000000e+000	8.281873e+000
2.545426824740764e-003	-1.000000e+000	8.288200e+000
2.551286199740764e-003	-1.000000e+000	8.293948e+000
2.557145574740764e-003	-1.000000e+000	8.299667e+000
2.563004949740764e-003	-1.000000e+000	8.305354e+000
2.568864324740764e-003	-1.000000e+000	8.311001e+000
2.574723699740763e-003	-1.000000e+000	8.316597e+000
2.580583074740763e-003	-1.000000e+000	8.322135e+000
2.586442449740763e-003	-1.000000e+000	8.327602e+000
2.592301824740763e-003	-1.000000e+000	8.332987e+000
2.598161199740762e-003	-1.000000e+000	8.338274e+000
2.604020574740762e-003	-1.000000e+000	8.343449e+000
2.609879949740762e-003	-1.000000e+000	8.348495e+000
2.615739324740762e-003	-1.000000e+000	8.353401e+000
2.621598699740762e-003	-1.000000e+000	8.358150e+000
2.627458074740761e-003	-1.000000e+000	8.362730e+000
2.633317449740761e-003	-1.000000e+000	8.367130e+000
2.639176824740761e-003	-1.000000e+000	8.371343e+000
2.645036199740761e-003	-1.000000e+000	8.375362e+000
2.650895574740761e-003	-1.000000e+000	8.379187e+000
2.656754949740760e-003	-1.000000e+000	8.382817e+000
2.662614324740760e-003	-1.000000e+000	8.386256e+000
2.668473699740760e-003	-1.000000e+000	8.389510e+000
2.674333074740760e-003	-1.000000e+000	8.392586e+000
2.686051824740759e-003	-1.000000e+000	8.398232e+000
2.697770574740759e-003	-1.000000e+000	8.403271e+000
2.715348699740758e-003	-1.000000e+000	8.409849e+000
2.727904503312186e-003	-1.000000e+000	8.413822e+000
2.740460306883615e-003	-1.000000e+000	8.417498e+000
2.753016110455043e-003	-1.000000e+000	8.420878e+000
2.765571914026471e-003	-1.000000e+000	8.423963e+000
2.778127717597899e-003	-1.000000e+000	8.426751e+000
2.790683521169327e-003	-1.000000e+000	8.429244e+000
2.803239324740755e-003	-1.000000e+000	8.431440e+000
2.831347992777790e-003	-1.000000e+000	8.435730e+000
2.859456660814825e-003	-1.000000e+000	8.439615e+000
2.887565328851860e-003	-1.000000e+000	8.443096e+000
2.915673996888895e-003	-1.000000e+000	8.446173e+000
2.943782664925930e-003	-1.000000e+000	8.448845e+000
2.971891332962965e-003	-1.000000e+000	8.451112e+000
3.000000001000000e-003	-1.000000e+000	8.452975e+000
3.000000002000000e-003	1.000000e+000	8.453945e+000
3.018261658330833e-003	1.000000e+000	8.451554e+000
3.036523314661665e-003	1.000000e+000	8.449013e+000
3.054784970992498e-003	1.000000e+000	8.446321e+000
3.073046627323331e-003	1.000000e+000	8.443478e+000
3.091308283654163e-003	1.000000e+000	8.440485e+000
3.109569939984996e-003	1.000000e+000	8.437341e+000
3.127831596315829e-003	1.000000e+000	8.434047e+000
3.140387399887257e-003	1.000000e+000	8.431523e+000
3.152943203458685e-003	1.000000e+000	8.428686e+000
3.165499007030113e-003	1.000000e+000	8.425534e+000
3.178054810601541e-003	1.000000e+000	8.422068e+000
3.190610614172969e-003	1.000000e+000	8.418289e+000
3.203166417744397e-003	1.000000e+000	8.414195e+000
3.215722221315825e-003	1.000000e+000	8.409787e+000
3.227440971315825e-003	1.000000e+000	8.405072e+000
3.239159721315825e-003	1.000000e+000	8.399818e+000
3.245019096315824e-003	1.000000e+000	8.396966e+000
3.250878471315824e-003	1.000000e+000	8.393950e+000
3.256737846315824e-003	1.000000e+000	8.390759e+000
3.262597221315824e-003	1.000000e+000	8.387386e+000
3.268456596315823e-003	1.000000e+000	8.383826e+000
3.274315971315823e-003	1.000000e+000	8.380072e+000
3.280175346315823e-003	1.000000e+000	8.376122e+000
3.286034721315823e-003	1.000000e+000	8.371975e+000
3.291894096315823e-003	1.000000e+000	8.367636e+000
3.297753471315822e-003	1.000000e+000	8.363111e+000
3.303612846315822e-003	1.000000e+000	8.358412e+000
3.309472221315822e-003	1.000000e+000	8.353549e+000
3.315331596315822e-003	1.000000e+000	8.348537e+000
3.321190971315822e-003	1.000000e+000	8.343393e+000
3.327050346315821e-003	1.000000e+000	8.338132e+000
3.332909721315821e-003	1.000000e+000	8.332768e+000
3.338769096315821e-003	1.000000e+000	8.327318e+000
3.344628471315821e-003	1.000000e+000	8.321794e+000
3.350487846315821e-003	1.000000e+000	8.316208e+000
3.356347221315820e-003	1.000000e+000	8.310570e+000
3.362206596315820e-003	1.000000e+000	8.304890e+000
3.368065971315820e-003	1.000000e+000	8.299175e+000
3.373925346315820e-003	1.000000e+000	8.293432e+000
3.385644096315819e-003	1.000000e+000	8.281883e+000
3.397362846315819e-003	1.000000e+000	8.270273e+000
3.414940971315818e-003	1.000000e+000	8.252789e+000
3.427092261413558e-003	1.000000e+000	8.240668e+000
3.439243551511299e-003	1.000000e+000	8.228541e+000
3.451394841609039e-003	1.000000e+000	8.216409e+000
3.463546131706779e-003	1.000000e+000	8.204271e+000
3.475697421804520e-003	1.000000e+000	8.192128e+000
3.487848711902260e-003	1.000000e+000	8.179980e+000
3.500000002000000e-003	1.000000e+000	8.167827e+000
3.500000003000000e-003	-1.000000e+000	7.907034e+000
3.500002998919988e-003	-1.000000e+000	7.908547e+000
3.500005994839976e-003	-1.000000e+000	7.911143e+000
3.500008990759964e-003	-1.000000e+000	7.914823e+000
3.500011986679952e-003	-1.000000e+000	7.919588e+000
3.500014982599940e-003	-1.000000e+000	7.925436e+000
3.500017978519928e-003	-1.000000e+000	7.932368e+000
3.500020974439916e-003	-1.000000e+000	7.940384e+000
3.500031383139042e-003	-1.000000e+000	7.969013e+000
3.500056333462259e-003	-1.000000e+000	8.044687e+000
3.500070858183351e-003	-1.000000e+000	8.083710e+000
3.500084651376787e-003	-1.000000e+000	8.114045e+000
3.500100766919195e-003	-1.000000e+000	8.140554e+000
3.500116586439954e-003	-1.000000e+000	8.158059e+000
3.500135342415898e-003	-1.000000e+000	8.169799e+000
3.500157435842735e-003	-1.000000e+000	8.176200e+000
3.500169307335081e-003	-1.000000e+000	8.177182e+000
3.500177628823571e-003	-1.000000e+000	8.176929e+000
3.500186904290793e-003	-1.000000e+000	8.176216e+000
3.500197595777569e-003	-1.000000e+000	8.175137e+000
3.500221902891624e-003	-1.000000e+000	8.172450e+000
3.500235373206277e-003	-1.000000e+000	8.171125e+000
3.500249516824067e-003	-1.000000e+000	8.169982e+000
3.500264743637599e-003	-1.000000e+000	8.169056e+000
3.500280890094631e-003	-1.000000e+000	8.168394e+000
3.500298855147286e-003	-1.000000e+000	8.167985e+000
3.500325854617849e-003	-1.000000e+000	8.167744e+000
3.500345221558125e-003	-1.000000e+000	8.167738e+000
3.500419962727834e-003	-1.000000e+000	8.168067e+000
3.500454395321133e-003	-1.000000e+000	8.168160e+000
3.500496551310324e-003	-1.000000e+000	8.168224e+000
3.502336707344802e-003	-1.000000e+000	8.170057e+000
3.504176863379279e-003	-1.000000e+000	8.171892e+000
3.506017019413757e-003	-1.000000e+000	8.173728e+000
3.507857175448234e-003	-1.000000e+000	8.175567e+000
3.509697331482712e-003	-1.000000e+000	8.177406e+000
3.511537487517189e-003	-1.000000e+000	8.179248e+000
3.513377643551667e-003	-1.000000e+000	8.181091e+000
3.524259339980238e-003	-1.000000e+000	8.191974e+000
3.535141036408809e-003	-1.000000e+000	8.202849e+000
3.546022732837380e-003	-1.000000e+000	8.213719e+000
3.556904429265951e-003	-1.000000e+000	8.224581e+000
3.567786125694522e-003	-1.000000e+000	8.235437e+000
3.578667822123093e-003	-1.000000e+000	8.246285e+000
3.589549518551664e-003	-1.000000e+000	8.257128e+000
3.607127643551664e-003	-1.000000e+000	8.274574e+000
3.618846393551663e-003	-1.000000e+000	8.286142e+000
3.624705768551663e-003	-1.000000e+000	8.291897e+000
3.630565143551663e-003	-1.000000e+000	8.297627e+000
3.636424518551663e-003	-1.000000e+000	8.303326e+000
3.642283893551662e-003	-1.000000e+000	8.308988e+000
3.648143268551662e-003	-1.000000e+000	8.314604e+000
3.654002643551662e-003	-1.000000e+000	8.320164e+000
3.659862018551662e-003	-1.000000e+000	8.325658e+000
3.665721393551662e-003	-1.000000e+000	8.331074e+000
3.671580768551661e-003	-1.000000e+000	8.336396e+000
3.677440143551661e-003	-1.000000e+000	8.341613e+000
3.683299518551661e-003	-1.000000e+000	8.346708e+000
3.689158893551661e-003	-1.000000e+000	8.351665e+000
3.695018268551661e-003	-1.000000e+000	8.356472e+000
3.700877643551660e-003	-1.000000e+000	8.361115e+000
3.706737018551660e-003	-1.000000e+000	8.365580e+000
3.712596393551660e-003	-1.000000e+000	8.369860e+000
3.718455768551660e-003	-1.000000e+000	8.373948e+000
3.724315143551660e-003	-1.000000e+000	8.377843e+000
3.730174518551659e-003	-1.000000e+000	8.381542e+000
3.736033893551659e-003	-1.000000e+000	8.385050e+000
3.741893268551659e-003	-1.000000e+000	8.388369e+000
3.747752643551659e-003	-1.000000e+000	8.391506e+000
3.759471393551658e-003	-1.000000e+000	8.397270e+000
3.771190143551658e-003	-1.000000e+000	8.402412e+000
3.788768268551657e-003	-1.000000e+000	8.409121e+000
3.806346393551657e-003	-1.000000e+000	8.414832e+000
3.821413357837371e-003	-1.000000e+000	8.418934e+000
3.836480322123084e-003	-1.000000e+000	8.422710e+000
3.851547286408798e-003	-1.000000e+000	8.426160e+000
3.866614250694512e-003	-1.000000e+000	8.429284e+000
3.881681214980226e-003	-1.000000e+000	8.432082e+000
3.896748179265939e-003	-1.000000e+000	8.434553e+000
3.911815143551653e-003	-1.000000e+000	8.436699e+000
4.000000001000001e-003	-1.000000e+000	8.446913e+000
4.000000002000000e-003	9.999991e-001	8.448133e+000
4.000010487675411e-003	1.000000e+000	8.448125e+000
4.004822107394376e-003	1.000000e+000	8.447022e+000
4.009633727113342e-003	1.000000e+000	8.446007e+000
4.014445346832308e-003	1.000000e+000	8.445080e+000
4.019256966551273e-003	1.000000e+000	8.444241e+000
4.024068586270239e-003	1.000000e+000	8.443491e+000
4.028880205989204e-003	1.000000e+000	8.442828e+000
4.033691825708170e-003	1.000000e+000	8.442254e+000
4.050432897136742e-003	1.000000e+000	8.439645e+000
