time	V(tr)	V(vc)
0.000000000000000e+000	3.000000e+000	6.309151e-001
1.599000000000000e-002	3.000000e+000	6.309151e-001
1.599031758639579e-002	2.809448e+000	6.309151e-001
1.599095275918737e-002	2.428344e+000	6.309151e-001
1.599124429072601e-002	2.253426e+000	6.309150e-001
1.599147601425610e-002	2.114392e+000	6.309149e-001
1.599168508776147e-002	1.988947e+000	6.309149e-001
1.599190289182903e-002	1.858265e+000	6.309147e-001
1.599212033441823e-002	1.727799e+000	6.309144e-001
1.599244390378884e-002	1.533658e+000	6.309112e-001
1.599279498572186e-002	1.323009e+000	6.308848e-001
1.599325151637513e-002	1.049090e+000	6.307890e-001
1.599350273443679e-002	8.983594e-001	6.306849e-001
1.599385536375475e-002	6.867818e-001	6.304635e-001
1.599431862135598e-002	4.088272e-001	6.301156e-001
1.599438066056117e-002	3.716037e-001	6.300653e-001
1.599475289579229e-002	1.482625e-001	6.297563e-001
1.599524920943379e-002	-1.495257e-001	6.293470e-001
1.599811847714652e-002	-1.871086e+000	6.270308e-001
1.600000000000000e-002	-3.000000e+000	6.255537e-001
1.600153893138357e-002	-3.000000e+000	6.243815e-001
1.600307786276713e-002	-3.000000e+000	6.232288e-001
1.600461679415070e-002	-3.000000e+000	6.220954e-001
1.600615572553427e-002	-3.000000e+000	6.209816e-001
1.600769465691784e-002	-3.000000e+000	6.198871e-001
1.600923358830140e-002	-3.000000e+000	6.188121e-001
1.601077251968497e-002	-3.000000e+000	6.177565e-001
1.601817683588406e-002	-3.000000e+000	6.128622e-001
1.603298546828223e-002	-3.000000e+000	6.038706e-001
1.606260273307858e-002	-3.000000e+000	5.876215e-001
1.612183726267128e-002	-3.000000e+000	5.581118e-001
1.622047007517128e-002	-3.000000e+000	5.120211e-001
1.631910288767128e-002	-3.000000e+000	4.673486e-001
1.641773570017128e-002	-3.000000e+000	4.232672e-001
1.651636851267128e-002	-3.000000e+000	3.794670e-001
1.661500132517128e-002	-3.000000e+000	3.358938e-001
1.671363413767128e-002	-3.000000e+000	2.925370e-001
1.695317096802842e-002	-3.000000e+000	1.881655e-001
1.719270779838556e-002	-3.000000e+000	8.500060e-002
1.743224462874270e-002	-3.000000e+000	-1.695778e-002
1.767178145909984e-002	-3.000000e+000	-1.177096e-001
1.791131828945698e-002	-3.000000e+000	-2.172549e-001
1.815085511981412e-002	-3.000000e+000	-3.155935e-001
1.839039195017126e-002	-3.000000e+000	-4.127257e-001
1.861890738586108e-002	-3.000000e+000	-5.043082e-001
1.884742282155090e-002	-3.000000e+000	-5.948835e-001
1.907593825724072e-002	-3.000000e+000	-6.844518e-001
1.930445369293054e-002	-3.000000e+000	-7.730129e-001
1.953296912862036e-002	-3.000000e+000	-8.605669e-001
1.976148456431018e-002	-3.000000e+000	-9.471139e-001
1.999000000000000e-002	-3.000000e+000	-1.032654e+000
1.999460931520348e-002	-2.344109e-001	-1.034369e+000
1.999555377769845e-002	3.322666e-001	-1.034720e+000
1.999620083057442e-002	7.204983e-001	-1.034960e+000
1.999656329794937e-002	9.379787e-001	-1.035089e+000
1.999690941578232e-002	1.145649e+000	-1.035183e+000
1.999730136717744e-002	1.380820e+000	-1.035230e+000
1.999755769327568e-002	1.534616e+000	-1.035208e+000
1.999790486862116e-002	1.742921e+000	-1.035110e+000
1.999831962316466e-002	1.991774e+000	-1.034943e+000
1.999838123478097e-002	2.028741e+000	-1.034915e+000
1.999924379740923e-002	2.546278e+000	-1.034506e+000
2.000000000000000e-002	3.000000e+000	-1.034147e+000
2.000121210437374e-002	3.000000e+000	-1.033570e+000
2.000242420874747e-002	3.000000e+000	-1.032994e+000
2.000363631312121e-002	3.000000e+000	-1.032418e+000
2.000484841749494e-002	3.000000e+000	-1.031842e+000
2.000606052186868e-002	3.000000e+000	-1.031266e+000
2.000727262624242e-002	3.000000e+000	-1.030689e+000
2.000848473061615e-002	3.000000e+000	-1.030113e+000
2.033237386625200e-002	3.000000e+000	-8.775145e-001
2.065626300188785e-002	3.000000e+000	-7.272671e-001
2.098015213752369e-002	3.000000e+000	-5.793708e-001
2.130404127315954e-002	3.000000e+000	-4.338256e-001
2.162793040879539e-002	3.000000e+000	-2.906315e-001
2.195181954443123e-002	3.000000e+000	-1.497885e-001
2.227570868006708e-002	3.000000e+000	-1.129673e-002
2.237434149256708e-002	3.000000e+000	3.045986e-002
2.257160711756708e-002	3.000000e+000	1.133577e-001
2.264205912649565e-002	3.000000e+000	1.427656e-001
2.271251113542422e-002	3.000000e+000	1.720709e-001
2.278296314435279e-002	3.000000e+000	2.012737e-001
2.285341515328136e-002	3.000000e+000	2.303740e-001
2.292386716220993e-002	3.000000e+000	2.593717e-001
2.299431917113850e-002	3.000000e+000	2.882668e-001
2.306477118006707e-002	3.000000e+000	3.170595e-001
2.316340399256707e-002	3.000000e+000	3.571995e-001
2.326203680506707e-002	3.000000e+000	3.971382e-001
2.336066961756707e-002	3.000000e+000	4.368631e-001
2.345930243006707e-002	3.000000e+000	4.763136e-001
2.355793524256707e-002	3.000000e+000	5.152232e-001
2.365656805506707e-002	3.000000e+000	5.525817e-001
2.375520086756707e-002	3.000000e+000	5.856308e-001
2.385383368006707e-002	3.000000e+000	6.101619e-001
2.395246649256707e-002	3.000000e+000	6.239306e-001
2.405109930506707e-002	3.000000e+000	6.293005e-001
2.414973211756706e-002	3.000000e+000	6.307081e-001
2.424836493006706e-002	3.000000e+000	6.309524e-001
2.434699774256706e-002	3.000000e+000	6.309450e-001
2.444563055506706e-002	3.000000e+000	6.309206e-001
2.454426336756706e-002	3.000000e+000	6.309160e-001
2.464289618006706e-002	3.000000e+000	6.309153e-001
2.484016180506706e-002	3.000000e+000	6.309151e-001
3.599000000000000e-002	3.000000e+000	6.309151e-001
3.599021367241054e-002	2.871797e+000	6.309151e-001
3.599045786945115e-002	2.725278e+000	6.309151e-001
3.599072513902353e-002	2.564917e+000	6.309151e-001
3.599100736726997e-002	2.395580e+000	6.309151e-001
3.599126524122666e-002	2.240855e+000	6.309151e-001
3.599158969917308e-002	2.046180e+000	6.309150e-001
3.599186690892160e-002	1.879855e+000	6.309149e-001
3.599214099458646e-002	1.715403e+000	6.309146e-001
3.599255061135446e-002	1.469633e+000	6.309124e-001
3.599294114065848e-002	1.235316e+000	6.308920e-001
3.599336274777481e-002	9.823514e-001	6.308185e-001
3.599364191836062e-002	8.148490e-001	6.307139e-001
3.599398595510742e-002	6.084269e-001	6.305116e-001
3.599440178714291e-002	3.589277e-001	6.302111e-001
3.599441079947853e-002	3.535203e-001	6.302038e-001
3.599457302151966e-002	2.561871e-001	6.300686e-001
3.599473524356079e-002	1.588539e-001	6.299338e-001
3.599489746560192e-002	6.152064e-002	6.297992e-001
3.599505968764305e-002	-3.581258e-002	6.296649e-001
3.599522190968418e-002	-1.331458e-001	6.295310e-001
3.599538413172531e-002	-2.304790e-001	6.293974e-001
3.599554635376644e-002	-3.278123e-001	6.292641e-001
3.599838028132563e-002	-2.028169e+000	6.269791e-001
3.600000000000000e-002	-3.000000e+000	6.257058e-001
3.600248270852944e-002	-3.000000e+000	6.238261e-001
3.600496541705887e-002	-3.000000e+000	6.219919e-001
3.600744812558832e-002	-3.000000e+000	6.202030e-001
3.600993083411775e-002	-3.000000e+000	6.184596e-001
3.601241354264719e-002	-3.000000e+000	6.167617e-001
3.601489625117663e-002	-3.000000e+000	6.151091e-001
3.601737895970607e-002	-3.000000e+000	6.135020e-001
3.603139427115364e-002	-3.000000e+000	6.049183e-001
3.605942489404878e-002	-3.000000e+000	5.893980e-001
3.611548613983907e-002	-3.000000e+000	5.612765e-001
3.621411895233907e-002	-3.000000e+000	5.150188e-001
3.631275176483906e-002	-3.000000e+000	4.702749e-001
3.641138457733906e-002	-3.000000e+000	4.261698e-001
3.651001738983906e-002	-3.000000e+000	3.823536e-001
3.660865020233906e-002	-3.000000e+000	3.387660e-001
3.670728301483906e-002	-3.000000e+000	2.953952e-001
3.690454863983906e-002	-3.000000e+000	2.093140e-001
3.710181426483906e-002	-3.000000e+000	1.240574e-001
3.729907988983906e-002	-3.000000e+000	3.962544e-002
3.749634551483905e-002	-3.000000e+000	-4.398195e-002
3.769361113983905e-002	-3.000000e+000	-1.267647e-001
3.789087676483905e-002	-3.000000e+000	-2.087229e-001
3.808814238983905e-002	-3.000000e+000	-2.898566e-001
3.835983633414775e-002	-3.000000e+000	-4.002708e-001
3.863153027845646e-002	-3.000000e+000	-5.092486e-001
3.890322422276517e-002	-3.000000e+000	-6.167898e-001
3.917491816707388e-002	-3.000000e+000	-7.228946e-001
3.944661211138258e-002	-3.000000e+000	-8.275628e-001
3.971830605569129e-002	-3.000000e+000	-9.307946e-001
3.999000000000000e-002	-3.000000e+000	-1.032590e+000
3.999449054969436e-002	-3.056702e-001	-1.034261e+000
3.999554925987794e-002	3.295559e-001	-1.034655e+000
3.999611585611020e-002	6.695136e-001	-1.034865e+000
3.999643022038346e-002	8.581322e-001	-1.034972e+000
3.999684289496541e-002	1.105737e+000	-1.035071e+000
3.999721834737272e-002	1.331008e+000	-1.035090e+000
3.999758856739295e-002	1.553140e+000	-1.035025e+000
3.999793121677878e-002	1.758730e+000	-1.034910e+000
3.999794192457208e-002	1.765155e+000	-1.034905e+000
3.999813466485161e-002	1.880799e+000	-1.034814e+000
3.999832740513113e-002	1.996443e+000	-1.034722e+000
3.999852014541066e-002	2.112087e+000	-1.034631e+000
3.999871288569018e-002	2.227731e+000	-1.034540e+000
3.999890562596971e-002	2.343375e+000	-1.034448e+000
3.999909836624923e-002	2.459020e+000	-1.034357e+000
3.999929110652876e-002	2.574664e+000	-1.034265e+000
4.000000000000000e-002	3.000000e+000	-1.033929e+000
4.000445994491619e-002	3.000000e+000	-1.031808e+000
4.000891988983239e-002	3.000000e+000	-1.029688e+000
4.001337983474858e-002	3.000000e+000	-1.027569e+000
4.001783977966478e-002	3.000000e+000	-1.025450e+000
4.002229972458098e-002	3.000000e+000	-1.023332e+000
4.002675966949718e-002	3.000000e+000	-1.021214e+000
4.003121961441337e-002	3.000000e+000	-1.019096e+000
4.035214442407279e-002	3.000000e+000	-8.680564e-001
4.067306923373221e-002	3.000000e+000	-7.193232e-001
4.099399404339164e-002	3.000000e+000	-5.728969e-001
4.131491885305105e-002	3.000000e+000	-4.287774e-001
4.163584366271048e-002	3.000000e+000	-2.869647e-001
4.195676847236990e-002	3.000000e+000	-1.474589e-001
4.227769328202932e-002	3.000000e+000	-1.025991e-002
4.237632609452932e-002	3.000000e+000	3.149159e-002
4.257359171952932e-002	3.000000e+000	1.143793e-001
4.264404372845789e-002	3.000000e+000	1.437836e-001
4.271449573738646e-002	3.000000e+000	1.730854e-001
4.278494774631503e-002	3.000000e+000	2.022846e-001
4.285539975524360e-002	3.000000e+000	2.313813e-001
4.292585176417217e-002	3.000000e+000	2.603754e-001
4.299630377310074e-002	3.000000e+000	2.892671e-001
4.306675578202932e-002	3.000000e+000	3.180561e-001
4.316538859452931e-002	3.000000e+000	3.581912e-001
4.326402140702931e-002	3.000000e+000	3.981249e-001
4.336265421952931e-002	3.000000e+000	4.378441e-001
4.346128703202931e-002	3.000000e+000	4.772859e-001
4.355991984452931e-002	3.000000e+000	5.161743e-001
4.365855265702931e-002	3.000000e+000	5.534688e-001
4.375718546952931e-002	3.000000e+000	5.863604e-001
4.385581828202931e-002	3.000000e+000	6.106359e-001
4.395445109452931e-002	3.000000e+000	6.241490e-001
4.405308390702931e-002	3.000000e+000	6.293648e-001
4.415171671952931e-002	3.000000e+000	6.307162e-001
4.425034953202930e-002	3.000000e+000	6.309490e-001
4.434898234452930e-002	3.000000e+000	6.309428e-001
4.444761515702930e-002	3.000000e+000	6.309202e-001
4.454624796952930e-002	3.000000e+000	6.309159e-001
4.464488078202930e-002	3.000000e+000	6.309153e-001
4.494077921952930e-002	3.000000e+000	6.309151e-001
5.599000000000000e-002	3.000000e+000	6.309151e-001
5.599009041312959e-002	2.945752e+000	6.309151e-001
5.599018082625918e-002	2.891504e+000	6.309151e-001
5.599027123938877e-002	2.837256e+000	6.309151e-001
5.599036165251835e-002	2.783008e+000	6.309151e-001
5.599045206564794e-002	2.728760e+000	6.309151e-001
5.599054247877754e-002	2.674513e+000	6.309151e-001
5.599063289190712e-002	2.620265e+000	6.309151e-001
5.599092798896976e-002	2.443207e+000	6.309151e-001
5.599123616191683e-002	2.258303e+000	6.309151e-001
5.599158226486153e-002	2.050641e+000	6.309150e-001
5.599189539729606e-002	1.862762e+000	6.309149e-001
5.599219450745283e-002	1.683295e+000	6.309147e-001
5.599250590325620e-002	1.496458e+000	6.309143e-001
5.599290014216483e-002	1.259915e+000	6.309065e-001
5.599326787050895e-002	1.039278e+000	6.308673e-001
5.599365556605874e-002	8.066604e-001	6.307637e-001
5.599393313570365e-002	6.401186e-001	6.306320e-001
5.599427845026517e-002	4.329298e-001	6.304009e-001
5.599468610110800e-002	1.883393e-001	6.300827e-001
5.599474563409063e-002	1.526195e-001	6.300337e-001
5.599510283198644e-002	-6.169919e-002	6.297373e-001
5.599557909584751e-002	-3.474575e-001	6.293446e-001
5.599848152266804e-002	-2.088914e+000	6.270024e-001
5.600000000000000e-002	-3.000000e+000	6.258073e-001
5.600249096113914e-002	-3.000000e+000	6.239179e-001
5.600498192227826e-002	-3.000000e+000	6.220747e-001
5.600747288341740e-002	-3.000000e+000	6.202777e-001
5.600996384455653e-002	-3.000000e+000	6.185268e-001
5.601245480569567e-002	-3.000000e+000	6.168220e-001
5.601494576683479e-002	-3.000000e+000	6.151635e-001
5.601743672797393e-002	-3.000000e+000	6.135511e-001
5.603151320494033e-002	-3.000000e+000	6.049276e-001
5.605966615887315e-002	-3.000000e+000	5.893413e-001
5.611597206673877e-002	-3.000000e+000	5.611041e-001
5.621460487923877e-002	-3.000000e+000	5.148546e-001
5.631323769173877e-002	-3.000000e+000	4.701148e-001
5.641187050423877e-002	-3.000000e+000	4.260111e-001
5.651050331673876e-002	-3.000000e+000	3.821958e-001
5.660913612923876e-002	-3.000000e+000	3.386090e-001
5.670776894173876e-002	-3.000000e+000	2.952390e-001
5.690503456673876e-002	-3.000000e+000	2.091595e-001
5.710230019173876e-002	-3.000000e+000	1.239045e-001
5.729956581673876e-002	-3.000000e+000	3.947417e-002
5.749683144173876e-002	-3.000000e+000	-4.413163e-002
5.769409706673875e-002	-3.000000e+000	-1.269128e-001
5.789136269173875e-002	-3.000000e+000	-2.088695e-001
5.808862831673875e-002	-3.000000e+000	-2.900015e-001
5.836025284291893e-002	-3.000000e+000	-4.003857e-001
5.863187736909910e-002	-3.000000e+000	-5.093341e-001
5.890350189527929e-002	-3.000000e+000	-6.168468e-001
5.917512642145947e-002	-3.000000e+000	-7.229237e-001
5.944675094763965e-002	-3.000000e+000	-8.275648e-001
5.971837547381982e-002	-3.000000e+000	-9.307702e-001
5.999000000000000e-002	-3.000000e+000	-1.032540e+000
5.999446332792331e-002	-3.220032e-001	-1.034201e+000
5.999467007580493e-002	-1.979545e-001	-1.034278e+000
5.999487682368655e-002	-7.390579e-002	-1.034355e+000
5.999508357156816e-002	5.014294e-002	-1.034432e+000
5.999529031944978e-002	1.741917e-001	-1.034508e+000
5.999549706733139e-002	2.982404e-001	-1.034585e+000
5.999570381521301e-002	4.222891e-001	-1.034662e+000
5.999591056309463e-002	5.463378e-001	-1.034739e+000
5.999622890934345e-002	7.373456e-001	-1.034851e+000
5.999659476312737e-002	9.568579e-001	-1.034948e+000
5.999700990536717e-002	1.205943e+000	-1.034994e+000
5.999727049176644e-002	1.362295e+000	-1.034968e+000
5.999761992485602e-002	1.571955e+000	-1.034862e+000
5.999802711145590e-002	1.816267e+000	-1.034693e+000
5.999808689592610e-002	1.852138e+000	-1.034665e+000
5.999892387850891e-002	2.354327e+000	-1.034268e+000
6.000000000000000e-002	3.000000e+000	-1.033757e+000
6.000506053894247e-002	3.000000e+000	-1.031351e+000
6.001012107788495e-002	3.000000e+000	-1.028946e+000
6.001518161682742e-002	3.000000e+000	-1.026541e+000
6.002024215576991e-002	3.000000e+000	-1.024138e+000
6.002530269471238e-002	3.000000e+000	-1.021734e+000
6.003036323365486e-002	3.000000e+000	-1.019332e+000
6.003542377259733e-002	3.000000e+000	-1.016930e+000
6.035812890688029e-002	3.000000e+000	-8.650940e-001
6.068083404116325e-002	3.000000e+000	-7.155895e-001
6.100353917544621e-002	3.000000e+000	-5.684163e-001
6.132624430972917e-002	3.000000e+000	-4.235745e-001
6.164894944401213e-002	3.000000e+000	-2.810641e-001
6.197165457829509e-002	3.000000e+000	-1.408851e-001
6.229435971257805e-002	3.000000e+000	-3.037538e-003
6.249162533757804e-002	3.000000e+000	8.018913e-002
6.256207734650661e-002	3.000000e+000	1.097136e-001
6.263252935543519e-002	3.000000e+000	1.391352e-001
6.270298136436375e-002	3.000000e+000	1.684538e-001
6.277343337329233e-002	3.000000e+000	1.976695e-001
6.284388538222090e-002	3.000000e+000	2.267823e-001
6.291433739114948e-002	3.000000e+000	2.557921e-001
6.298478940007804e-002	3.000000e+000	2.846990e-001
6.308342221257804e-002	3.000000e+000	3.249990e-001
6.318205502507804e-002	3.000000e+000	3.650996e-001
6.328068783757804e-002	3.000000e+000	4.049978e-001
6.337932065007804e-002	3.000000e+000	4.446762e-001
6.347795346257804e-002	3.000000e+000	4.840533e-001
6.357658627507803e-002	3.000000e+000	5.227764e-001
6.367521908757803e-002	3.000000e+000	5.595770e-001
6.377385190007803e-002	3.000000e+000	5.912984e-001
6.387248471257803e-002	3.000000e+000	6.137559e-001
6.397111752507803e-002	3.000000e+000	6.255339e-001
6.406975033757803e-002	3.000000e+000	6.297563e-001
6.416838315007803e-002	3.000000e+000	6.307656e-001
6.426701596257803e-002	3.000000e+000	6.309310e-001
6.436564877507803e-002	3.000000e+000	6.309308e-001
6.446428158757803e-002	3.000000e+000	6.309179e-001
6.456291440007803e-002	3.000000e+000	6.309156e-001
6.466154721257802e-002	3.000000e+000	6.309152e-001
7.599000000000000e-002	3.000000e+000	6.309151e-001
7.599100000000000e-002	2.400000e+000	6.309147e-001
7.599300000000001e-002	1.200000e+000	6.309128e-001
7.599303104979151e-002	1.181370e+000	6.309127e-001
7.599309314937451e-002	1.144110e+000	6.309125e-001
7.599321734854053e-002	1.069591e+000	6.309113e-001
7.599334343062665e-002	9.939416e-001	6.309057e-001
7.599350769616188e-002	8.953823e-001	6.308858e-001
7.599394440607982e-002	6.333563e-001	6.307441e-001
7.599441435324779e-002	3.513880e-001	6.304648e-001
7.599485990811213e-002	8.405513e-002	6.301376e-001
7.599493030745676e-002	4.181553e-002	6.300805e-001
7.599535270352456e-002	-2.116221e-001	6.297299e-001
7.599676095664174e-002	-1.056574e+000	6.285753e-001
7.600000000000000e-002	-3.000000e+000	6.259947e-001
7.600190525667563e-002	-3.000000e+000	6.245378e-001
7.600381051335127e-002	-3.000000e+000	6.231097e-001
7.600571577002691e-002	-3.000000e+000	6.217105e-001
7.600762102670255e-002	-3.000000e+000	6.203402e-001
7.600952628337819e-002	-3.000000e+000	6.189987e-001
7.601143154005383e-002	-3.000000e+000	6.176860e-001
7.601333679672946e-002	-3.000000e+000	6.164023e-001
7.602335719968707e-002	-3.000000e+000	6.099803e-001
7.604339800560228e-002	-3.000000e+000	5.982832e-001
7.608347961743270e-002	-3.000000e+000	5.772260e-001
7.616364284109353e-002	-3.000000e+000	5.385484e-001
7.626227565359353e-002	-3.000000e+000	4.932093e-001
7.636090846609353e-002	-3.000000e+000	4.488648e-001
7.645954127859353e-002	-3.000000e+000	4.049146e-001
7.655817409109353e-002	-3.000000e+000	3.612120e-001
7.665680690359353e-002	-3.000000e+000	3.177301e-001
7.675543971609353e-002	-3.000000e+000	2.744631e-001
7.703724775180781e-002	-3.000000e+000	1.520719e-001
7.731905578752209e-002	-3.000000e+000	3.133498e-002
7.760086382323637e-002	-3.000000e+000	-8.774757e-002
7.788267185895066e-002	-3.000000e+000	-2.051758e-001
7.816447989466495e-002	-3.000000e+000	-3.209496e-001
7.844628793037922e-002	-3.000000e+000	-4.350691e-001
7.872809596609351e-002	-3.000000e+000	-5.475343e-001
7.890836797093730e-002	-3.000000e+000	-6.186666e-001
7.908863997578108e-002	-3.000000e+000	-6.891792e-001
7.926891198062487e-002	-3.000000e+000	-7.590720e-001
7.944918398546864e-002	-3.000000e+000	-8.283451e-001
7.962945599031243e-002	-3.000000e+000	-8.969985e-001
7.980972799515622e-002	-3.000000e+000	-9.650321e-001
7.999000000000001e-002	-3.000000e+000	-1.032446e+000
7.999071059549003e-002	-2.573643e+000	-1.032711e+000
7.999142119098004e-002	-2.147285e+000	-1.032975e+000
7.999213178647006e-002	-1.720928e+000	-1.033240e+000
7.999284238196008e-002	-1.294571e+000	-1.033504e+000
7.999355297745010e-002	-8.682136e-001	-1.033768e+000
7.999426357294012e-002	-4.418563e-001	-1.034033e+000
7.999497416843014e-002	-1.549894e-002	-1.034297e+000
7.999591846674745e-002	5.510800e-001	-1.034647e+000
7.999622002585631e-002	7.320155e-001	-1.034751e+000
7.999658542667641e-002	9.512560e-001	-1.034841e+000
7.999690902318016e-002	1.145414e+000	-1.034865e+000
7.999722566431508e-002	1.335399e+000	-1.034822e+000
7.999755892920261e-002	1.535357e+000	-1.034714e+000
